time,V(in),V(ctrl),V(sw),V(n_l),V(out),I(Vdc),I(Vpwm),I(L1)
0.000000000e+00,2.400000000e+01,1.000000000e+01,2.399871427e+01,2.399871427e+01,2.399841429e+01,-3.000041826e-01,0.000000000e+00,4.285774030e-02
2.000000000e-07,2.400000000e+01,1.000000000e+01,2.399871427e+01,2.399871427e+01,2.399841429e+01,-3.000041822e-01,0.000000000e+00,4.285774030e-02
4.000000000e-07,2.400000000e+01,1.000000000e+01,2.399871427e+01,2.399871427e+01,2.399841429e+01,-3.000041816e-01,0.000000000e+00,4.285774030e-02
6.000000000e-07,2.400000000e+01,1.000000000e+01,2.399871427e+01,2.399871427e+01,2.399841429e+01,-3.000041810e-01,0.000000000e+00,4.285774030e-02
8.000000000e-07,2.400000000e+01,1.000000000e+01,2.399871427e+01,2.399871427e+01,2.399841429e+01,-3.000041806e-01,0.000000000e+00,4.285774030e-02
1.000000000e-06,2.400000000e+01,1.000000000e+01,2.399871427e+01,2.399871427e+01,2.399841429e+01,-3.000041802e-01,0.000000000e+00,4.285774030e-02
1.200000000e-06,2.400000000e+01,1.000000000e+01,2.399871427e+01,2.399871427e+01,2.399841429e+01,-3.000041798e-01,0.000000000e+00,4.285774030e-02
1.400000000e-06,2.400000000e+01,1.000000000e+01,2.399871427e+01,2.399871427e+01,2.399841429e+01,-3.000041795e-01,0.000000000e+00,4.285774030e-02
1.600000000e-06,2.400000000e+01,1.000000000e+01,2.399871427e+01,2.399871427e+01,2.399841429e+01,-3.000041792e-01,0.000000000e+00,4.285774030e-02
1.800000000e-06,2.400000000e+01,1.000000000e+01,2.399871427e+01,2.399871427e+01,2.399841429e+01,-3.000041790e-01,0.000000000e+00,4.285774030e-02
2.000000000e-06,2.400000000e+01,1.000000000e+01,2.399871427e+01,2.399871427e+01,2.399841429e+01,-3.000041788e-01,0.000000000e+00,4.285774030e-02
2.200000000e-06,2.400000000e+01,1.000000000e+01,2.399871427e+01,2.399871427e+01,2.399841429e+01,-3.000041787e-01,0.000000000e+00,4.285774030e-02
2.400000000e-06,2.400000000e+01,1.000000000e+01,2.399871427e+01,2.399871427e+01,2.399841429e+01,-3.000041785e-01,0.000000000e+00,4.285774030e-02
2.600000000e-06,2.400000000e+01,1.000000000e+01,2.399871427e+01,2.399871427e+01,2.399841429e+01,-3.000041784e-01,0.000000000e+00,4.285774030e-02
2.800000000e-06,2.400000000e+01,1.000000000e+01,2.399871427e+01,2.399871427e+01,2.399841429e+01,-3.000041783e-01,0.000000000e+00,4.285774030e-02
3.000000000e-06,2.400000000e+01,1.000000000e+01,2.399871427e+01,2.399871427e+01,2.399841429e+01,-3.000041782e-01,0.000000000e+00,4.285774030e-02
3.200000000e-06,2.400000000e+01,1.000000000e+01,2.399871427e+01,2.399871427e+01,2.399841429e+01,-3.000041781e-01,0.000000000e+00,4.285774030e-02
3.400000000e-06,2.400000000e+01,1.000000000e+01,2.399871427e+01,2.399871427e+01,2.399841429e+01,-3.000041781e-01,0.000000000e+00,4.285774030e-02
3.600000000e-06,2.400000000e+01,1.000000000e+01,2.399871427e+01,2.399871427e+01,2.399841429e+01,-3.000041780e-01,0.000000000e+00,4.285774030e-02
3.800000000e-06,2.400000000e+01,1.000000000e+01,2.399871427e+01,2.399871427e+01,2.399841429e+01,-3.000041779e-01,0.000000000e+00,4.285774030e-02
4.000000000e-06,2.400000000e+01,1.000000000e+01,2.399871427e+01,2.399871427e+01,2.399841429e+01,-3.000041779e-01,0.000000000e+00,4.285774030e-02
4.200000000e-06,2.400000000e+01,1.000000000e+01,2.399871427e+01,2.399871427e+01,2.399841429e+01,-3.000041779e-01,0.000000000e+00,4.285774030e-02
4.400000000e-06,2.400000000e+01,1.000000000e+01,2.399871427e+01,2.399871427e+01,2.399841429e+01,-3.000041779e-01,0.000000000e+00,4.285774030e-02
4.600000000e-06,2.400000000e+01,1.000000000e+01,2.399871427e+01,2.399871427e+01,2.399841429e+01,-3.000041778e-01,0.000000000e+00,4.285774030e-02
4.800000000e-06,2.400000000e+01,1.000000000e+01,2.399871427e+01,2.399871427e+01,2.399841429e+01,-3.000041778e-01,0.000000000e+00,4.285774030e-02
5.000000000e-06,2.400000000e+01,1.000000000e+01,2.399871427e+01,2.399871427e+01,2.399841429e+01,-3.000041778e-01,0.000000000e+00,4.285774030e-02
5.200000000e-06,2.400000000e+01,1.000000000e+01,2.399871427e+01,2.399871427e+01,2.399841429e+01,-3.000041778e-01,0.000000000e+00,4.285774030e-02
5.400000000e-06,2.400000000e+01,1.000000000e+01,2.399871427e+01,2.399871427e+01,2.399841429e+01,-3.000041777e-01,0.000000000e+00,4.285774030e-02
5.600000000e-06,2.400000000e+01,1.000000000e+01,2.399871427e+01,2.399871427e+01,2.399841429e+01,-3.000041777e-01,0.000000000e+00,4.285774030e-02
5.800000000e-06,2.400000000e+01,2.065363653e-10,2.399834024e+01,2.399871426e+01,2.399829740e+01,-4.285805430e-02,0.000000000e+00,4.285805198e-02
6.000000000e-06,2.400000000e+01,1.923519795e-19,2.399810647e+01,2.399871423e+01,2.399806364e+01,-4.285887281e-02,0.000000000e+00,4.285887013e-02
6.200000000e-06,2.400000000e+01,1.791417408e-28,2.399787271e+01,2.399871420e+01,2.399782987e+01,-4.286008084e-02,0.000000000e+00,4.286007784e-02
6.400000000e-06,2.400000000e+01,1.668387473e-37,2.399763895e+01,2.399871415e+01,2.399759612e+01,-4.286167841e-02,0.000000000e+00,4.286167508e-02
6.600000000e-06,2.400000000e+01,1.553806916e-46,2.399740520e+01,2.399871409e+01,2.399736236e+01,-4.286366548e-02,0.000000000e+00,4.286366181e-02
6.800000000e-06,2.400000000e+01,1.447095458e-55,2.399717145e+01,2.399871402e+01,2.399712861e+01,-4.286604202e-02,0.000000000e+00,4.286603802e-02
7.000000000e-06,2.400000000e+01,1.347712668e-64,2.399693771e+01,2.399871394e+01,2.399689487e+01,-4.286880801e-02,0.000000000e+00,4.286880368e-02
7.200000000e-06,2.400000000e+01,1.255155231e-73,2.399670398e+01,2.399871384e+01,2.399666113e+01,-4.287196341e-02,0.000000000e+00,4.287195876e-02
7.400000000e-06,2.400000000e+01,1.168954402e-82,2.399647025e+01,2.399871373e+01,2.399642739e+01,-4.287550820e-02,0.000000000e+00,4.287550322e-02
7.600000000e-06,2.400000000e+01,1.088673623e-91,2.399623652e+01,2.399871362e+01,2.399619367e+01,-4.287944235e-02,0.000000000e+00,4.287943704e-02
7.800000000e-06,2.400000000e+01,1.013906321e-100,2.399600281e+01,2.399871349e+01,2.399595995e+01,-4.288376583e-02,0.000000000e+00,4.288376018e-02
8.000000000e-06,2.400000000e+01,9.442738457e-110,2.399576910e+01,2.399871335e+01,2.399572623e+01,-4.288847860e-02,0.000000000e+00,4.288847263e-02
8.200000000e-06,2.400000000e+01,8.794235491e-119,2.399553539e+01,2.399871319e+01,2.399549252e+01,-4.289358064e-02,0.000000000e+00,4.289357434e-02
8.400000000e-06,2.400000000e+01,8.190270039e-128,2.399530170e+01,2.399871303e+01,2.399525882e+01,-4.289907191e-02,0.000000000e+00,4.289906528e-02
8.600000000e-06,2.400000000e+01,7.627783380e-137,2.399506801e+01,2.399871285e+01,2.399502513e+01,-4.290495238e-02,0.000000000e+00,4.290494542e-02
8.800000000e-06,2.400000000e+01,7.103926856e-146,2.399483434e+01,2.399871266e+01,2.399479145e+01,-4.291122202e-02,0.000000000e+00,4.291121472e-02
9.000000000e-06,2.400000000e+01,6.616047449e-155,2.399460067e+01,2.399871246e+01,2.399455777e+01,-4.291788079e-02,0.000000000e+00,4.291787316e-02
9.200000000e-06,2.400000000e+01,6.161674344e-164,2.399436701e+01,2.399871225e+01,2.399432411e+01,-4.292492865e-02,0.000000000e+00,4.292492070e-02
9.400000000e-06,2.400000000e+01,5.738506414e-173,2.399413336e+01,2.399871203e+01,2.399409045e+01,-4.293236558e-02,0.000000000e+00,4.293235730e-02
9.600000000e-06,2.400000000e+01,5.344400568e-182,2.399389972e+01,2.399871179e+01,2.399385680e+01,-4.294019153e-02,0.000000000e+00,4.294018292e-02
9.800000000e-06,2.400000000e+01,4.977360897e-191,2.399366609e+01,2.399871155e+01,2.399362316e+01,-4.294840648e-02,0.000000000e+00,4.294839753e-02
1.000000000e-05,2.400000000e+01,4.635528565e-200,2.399343247e+01,2.399871129e+01,2.399338954e+01,-4.295701038e-02,0.000000000e+00,4.295700110e-02
1.020000000e-05,2.400000000e+01,1.000000000e+01,2.399473151e+01,2.399871106e+01,2.399363487e+01,-1.096662952e+00,0.000000000e+00,4.296471641e-02
1.040000000e-05,2.400000000e+01,1.000000000e+01,2.399529258e+01,2.399871087e+01,2.399430815e+01,-9.844544444e-01,0.000000000e+00,4.297088128e-02
1.060000000e-05,2.400000000e+01,1.000000000e+01,2.399577463e+01,2.399871071e+01,2.399488660e+01,-8.880503802e-01,0.000000000e+00,4.297617659e-02
1.080000000e-05,2.400000000e+01,1.000000000e+01,2.399618878e+01,2.399871058e+01,2.399538358e+01,-8.052247213e-01,0.000000000e+00,4.298072483e-02
1.100000000e-05,2.400000000e+01,1.000000000e+01,2.399654460e+01,2.399871046e+01,2.399581056e+01,-7.340649642e-01,0.000000000e+00,4.298463121e-02
1.120000000e-05,2.400000000e+01,1.000000000e+01,2.399685030e+01,2.399871036e+01,2.399617740e+01,-6.729279798e-01,0.000000000e+00,4.298798615e-02
1.140000000e-05,2.400000000e+01,1.000000000e+01,2.399711294e+01,2.399871027e+01,2.399649257e+01,-6.204020717e-01,0.000000000e+00,4.299086731e-02
1.160000000e-05,2.400000000e+01,1.000000000e+01,2.399733859e+01,2.399871020e+01,2.399676334e+01,-5.752743792e-01,0.000000000e+00,4.299334142e-02
1.180000000e-05,2.400000000e+01,1.000000000e+01,2.399753246e+01,2.399871014e+01,2.399699598e+01,-5.365028721e-01,0.000000000e+00,4.299546582e-02
1.200000000e-05,2.400000000e+01,1.000000000e+01,2.399769903e+01,2.399871008e+01,2.399719586e+01,-5.031922886e-01,0.000000000e+00,4.299728976e-02
1.220000000e-05,2.400000000e+01,1.000000000e+01,2.399784213e+01,2.399871003e+01,2.399736758e+01,-4.745734637e-01,0.000000000e+00,4.299885556e-02
1.240000000e-05,2.400000000e+01,1.000000000e+01,2.399796507e+01,2.399870999e+01,2.399751511e+01,-4.499855685e-01,0.000000000e+00,4.300019959e-02
1.260000000e-05,2.400000000e+01,1.000000000e+01,2.399807070e+01,2.399870996e+01,2.399764187e+01,-4.288608509e-01,0.000000000e+00,4.300135307e-02
1.280000000e-05,2.400000000e+01,1.000000000e+01,2.399816145e+01,2.399870993e+01,2.399775077e+01,-4.107115264e-01,0.000000000e+00,4.300234284e-02
1.300000000e-05,2.400000000e+01,1.000000000e+01,2.399823942e+01,2.399870990e+01,2.399784433e+01,-3.951185140e-01,0.000000000e+00,4.300319197e-02
1.320000000e-05,2.400000000e+01,1.000000000e+01,2.399830641e+01,2.399870988e+01,2.399792471e+01,-3.817217601e-01,0.000000000e+00,4.300392027e-02
1.340000000e-05,2.400000000e+01,1.000000000e+01,2.399836396e+01,2.399870986e+01,2.399799378e+01,-3.702119240e-01,0.000000000e+00,4.300454475e-02
1.360000000e-05,2.400000000e+01,1.000000000e+01,2.399841341e+01,2.399870985e+01,2.399805311e+01,-3.603232355e-01,0.000000000e+00,4.300508003e-02
1.380000000e-05,2.400000000e+01,1.000000000e+01,2.399845589e+01,2.399870983e+01,2.399810409e+01,-3.518273579e-01,0.000000000e+00,4.300553868e-02
1.400000000e-05,2.400000000e+01,1.000000000e+01,2.399849239e+01,2.399870982e+01,2.399814788e+01,-3.445281151e-01,0.000000000e+00,4.300593149e-02
1.420000000e-05,2.400000000e+01,1.000000000e+01,2.399852375e+01,2.399870981e+01,2.399818551e+01,-3.382569626e-01,0.000000000e+00,4.300626774e-02
1.440000000e-05,2.400000000e+01,1.000000000e+01,2.399855069e+01,2.399870980e+01,2.399821784e+01,-3.328690949e-01,0.000000000e+00,4.300655539e-02
1.460000000e-05,2.400000000e+01,1.000000000e+01,2.399857383e+01,2.399870980e+01,2.399824562e+01,-3.282401024e-01,0.000000000e+00,4.300680129e-02
1.480000000e-05,2.400000000e+01,1.000000000e+01,2.399859372e+01,2.399870979e+01,2.399826948e+01,-3.242630983e-01,0.000000000e+00,4.300701132e-02
1.500000000e-05,2.400000000e+01,1.000000000e+01,2.399861080e+01,2.399870978e+01,2.399828998e+01,-3.208462509e-01,0.000000000e+00,4.300719053e-02
1.520000000e-05,2.400000000e+01,1.000000000e+01,2.399862548e+01,2.399870978e+01,2.399830760e+01,-3.179106626e-01,0.000000000e+00,4.300734326e-02
1.540000000e-05,2.400000000e+01,1.000000000e+01,2.399863809e+01,2.399870978e+01,2.399832273e+01,-3.153885486e-01,0.000000000e+00,4.300747324e-02
1.560000000e-05,2.400000000e+01,1.000000000e+01,2.399864893e+01,2.399870977e+01,2.399833573e+01,-3.132216716e-01,0.000000000e+00,4.300758367e-02
1.580000000e-05,2.400000000e+01,2.065363653e-10,2.399826791e+01,2.399870976e+01,2.399822492e+01,-4.300800500e-02,0.000000000e+00,4.300800259e-02
1.600000000e-05,2.400000000e+01,1.923519795e-19,2.399803428e+01,2.399870973e+01,2.399799130e+01,-4.300893645e-02,0.000000000e+00,4.300893367e-02
1.620000000e-05,2.400000000e+01,1.791417408e-28,2.399780066e+01,2.399870969e+01,2.399775767e+01,-4.301025718e-02,0.000000000e+00,4.301025408e-02
1.640000000e-05,2.400000000e+01,1.668387473e-37,2.399756704e+01,2.399870964e+01,2.399752405e+01,-4.301196721e-02,0.000000000e+00,4.301196378e-02
1.660000000e-05,2.400000000e+01,1.553806916e-46,2.399733342e+01,2.399870958e+01,2.399729043e+01,-4.301406651e-02,0.000000000e+00,4.301406274e-02
1.680000000e-05,2.400000000e+01,1.447095458e-55,2.399709981e+01,2.399870950e+01,2.399705682e+01,-4.301655504e-02,0.000000000e+00,4.301655095e-02
1.700000000e-05,2.400000000e+01,1.347712668e-64,2.399686621e+01,2.399870942e+01,2.399682321e+01,-4.301943279e-02,0.000000000e+00,4.301942836e-02
1.720000000e-05,2.400000000e+01,1.255155231e-73,2.399663261e+01,2.399870932e+01,2.399658961e+01,-4.302269972e-02,0.000000000e+00,4.302269496e-02
1.740000000e-05,2.400000000e+01,1.168954402e-82,2.399639902e+01,2.399870921e+01,2.399635602e+01,-4.302635580e-02,0.000000000e+00,4.302635071e-02
1.760000000e-05,2.400000000e+01,1.088673623e-91,2.399616543e+01,2.399870909e+01,2.399612243e+01,-4.303040100e-02,0.000000000e+00,4.303039558e-02
1.780000000e-05,2.400000000e+01,1.013906321e-100,2.399593185e+01,2.399870896e+01,2.399588884e+01,-4.303483529e-02,0.000000000e+00,4.303482955e-02
1.800000000e-05,2.400000000e+01,9.442738457e-110,2.399569828e+01,2.399870881e+01,2.399565527e+01,-4.303965865e-02,0.000000000e+00,4.303965257e-02
1.820000000e-05,2.400000000e+01,8.794235491e-119,2.399546472e+01,2.399870865e+01,2.399542170e+01,-4.304487103e-02,0.000000000e+00,4.304486462e-02
1.840000000e-05,2.400000000e+01,8.190270039e-128,2.399523116e+01,2.399870849e+01,2.399518814e+01,-4.305047241e-02,0.000000000e+00,4.305046567e-02
1.860000000e-05,2.400000000e+01,7.627783380e-137,2.399499762e+01,2.399870831e+01,2.399495458e+01,-4.305646275e-02,0.000000000e+00,4.305645568e-02
1.880000000e-05,2.400000000e+01,7.103926856e-146,2.399476408e+01,2.399870811e+01,2.399472104e+01,-4.306284202e-02,0.000000000e+00,4.306283463e-02
1.900000000e-05,2.400000000e+01,6.616047449e-155,2.399453055e+01,2.399870791e+01,2.399448750e+01,-4.306961019e-02,0.000000000e+00,4.306960246e-02
1.920000000e-05,2.400000000e+01,6.161674344e-164,2.399429703e+01,2.399870770e+01,2.399425397e+01,-4.307676721e-02,0.000000000e+00,4.307675916e-02
1.940000000e-05,2.400000000e+01,5.738506414e-173,2.399406352e+01,2.399870747e+01,2.399402045e+01,-4.308431307e-02,0.000000000e+00,4.308430468e-02
1.960000000e-05,2.400000000e+01,5.344400568e-182,2.399383001e+01,2.399870723e+01,2.399378695e+01,-4.309224771e-02,0.000000000e+00,4.309223899e-02
1.980000000e-05,2.400000000e+01,4.977360897e-191,2.399359652e+01,2.399870698e+01,2.399355345e+01,-4.310057110e-02,0.000000000e+00,4.310056206e-02
2.000000000e-05,2.400000000e+01,1.000000000e+01,2.399485869e+01,2.399870676e+01,2.399378735e+01,-1.071369412e+00,0.000000000e+00,4.310802750e-02
2.020000000e-05,2.400000000e+01,1.000000000e+01,2.399540195e+01,2.399870658e+01,2.399443925e+01,-9.627234658e-01,0.000000000e+00,4.311398807e-02
2.040000000e-05,2.400000000e+01,1.000000000e+01,2.399586869e+01,2.399870643e+01,2.399499934e+01,-8.693801806e-01,0.000000000e+00,4.311910671e-02
2.060000000e-05,2.400000000e+01,1.000000000e+01,2.399626970e+01,2.399870629e+01,2.399548054e+01,-7.891841934e-01,0.000000000e+00,4.312350198e-02
2.080000000e-05,2.400000000e+01,1.000000000e+01,2.399661422e+01,2.399870618e+01,2.399589396e+01,-7.202837217e-01,0.000000000e+00,4.312727579e-02
2.100000000e-05,2.400000000e+01,1.000000000e+01,2.399691021e+01,2.399870608e+01,2.399624915e+01,-6.610878048e-01,0.000000000e+00,4.313051565e-02
2.120000000e-05,2.400000000e+01,1.000000000e+01,2.399716452e+01,2.399870600e+01,2.399655431e+01,-6.102295670e-01,0.000000000e+00,4.313329678e-02
2.140000000e-05,2.400000000e+01,1.000000000e+01,2.399738301e+01,2.399870593e+01,2.399681649e+01,-5.665346553e-01,0.000000000e+00,4.313568378e-02
2.160000000e-05,2.400000000e+01,1.000000000e+01,2.399757072e+01,2.399870587e+01,2.399704175e+01,-5.289941234e-01,0.000000000e+00,4.313773218e-02
2.180000000e-05,2.400000000e+01,1.000000000e+01,2.399773199e+01,2.399870582e+01,2.399723527e+01,-4.967411336e-01,0.000000000e+00,4.313948965e-02
2.200000000e-05,2.400000000e+01,1.000000000e+01,2.399787055e+01,2.399870577e+01,2.399740154e+01,-4.690309416e-01,0.000000000e+00,4.314099719e-02
2.220000000e-05,2.400000000e+01,1.000000000e+01,2.399798959e+01,2.399870573e+01,2.399754439e+01,-4.452236993e-01,0.000000000e+00,4.314228999e-02
2.240000000e-05,2.400000000e+01,1.000000000e+01,2.399809187e+01,2.399870570e+01,2.399766712e+01,-4.247696806e-01,0.000000000e+00,4.314339830e-02
2.260000000e-05,2.400000000e+01,1.000000000e+01,2.399817974e+01,2.399870567e+01,2.399777257e+01,-4.071965876e-01,0.000000000e+00,4.314434810e-02
2.280000000e-05,2.400000000e+01,1.000000000e+01,2.399825523e+01,2.399870565e+01,2.399786316e+01,-3.920986453e-01,0.000000000e+00,4.314516172e-02
2.300000000e-05,2.400000000e+01,1.000000000e+01,2.399832009e+01,2.399870562e+01,2.399794099e+01,-3.791272313e-01,0.000000000e+00,4.314585833e-02
2.320000000e-05,2.400000000e+01,1.000000000e+01,2.399837582e+01,2.399870561e+01,2.399800786e+01,-3.679828266e-01,0.000000000e+00,4.314645443e-02
2.340000000e-05,2.400000000e+01,1.000000000e+01,2.399842369e+01,2.399870559e+01,2.399806531e+01,-3.584080989e-01,0.000000000e+00,4.314696417e-02
2.360000000e-05,2.400000000e+01,1.000000000e+01,2.399846483e+01,2.399870558e+01,2.399811467e+01,-3.501819609e-01,0.000000000e+00,4.314739971e-02
2.380000000e-05,2.400000000e+01,1.000000000e+01,2.399850017e+01,2.399870557e+01,2.399815708e+01,-3.431144653e-01,0.000000000e+00,4.314777150e-02
2.400000000e-05,2.400000000e+01,1.000000000e+01,2.399853053e+01,2.399870556e+01,2.399819351e+01,-3.370424186e-01,0.000000000e+00,4.314808853e-02
2.420000000e-05,2.400000000e+01,1.000000000e+01,2.399855661e+01,2.399870555e+01,2.399822481e+01,-3.318256129e-01,0.000000000e+00,4.314835850e-02
2.440000000e-05,2.400000000e+01,1.000000000e+01,2.399857902e+01,2.399870554e+01,2.399825171e+01,-3.273435885e-01,0.000000000e+00,4.314858804e-02
2.460000000e-05,2.400000000e+01,1.000000000e+01,2.399859828e+01,2.399870554e+01,2.399827481e+01,-3.234928523e-01,0.000000000e+00,4.314878285e-02
2.480000000e-05,2.400000000e+01,1.000000000e+01,2.399861482e+01,2.399870553e+01,2.399829466e+01,-3.201844880e-01,0.000000000e+00,4.314894783e-02
2.500000000e-05,2.400000000e+01,1.000000000e+01,2.399862903e+01,2.399870553e+01,2.399831172e+01,-3.173421031e-01,0.000000000e+00,4.314908716e-02
2.520000000e-05,2.400000000e+01,1.000000000e+01,2.399864125e+01,2.399870552e+01,2.399832637e+01,-3.149000649e-01,0.000000000e+00,4.314920447e-02
2.540000000e-05,2.400000000e+01,1.000000000e+01,2.399865174e+01,2.399870552e+01,2.399833896e+01,-3.128019851e-01,0.000000000e+00,4.314930286e-02
2.560000000e-05,2.400000000e+01,1.000000000e+01,2.399866075e+01,2.399870552e+01,2.399834977e+01,-3.109994176e-01,0.000000000e+00,4.314938498e-02
2.580000000e-05,2.400000000e+01,2.065363653e-10,2.399828115e+01,2.399870551e+01,2.399823802e+01,-4.314977832e-02,0.000000000e+00,4.314977592e-02
2.600000000e-05,2.400000000e+01,1.923519795e-19,2.399804765e+01,2.399870548e+01,2.399800452e+01,-4.315068051e-02,0.000000000e+00,4.315067775e-02
2.620000000e-05,2.400000000e+01,1.791417408e-28,2.399781415e+01,2.399870544e+01,2.399777102e+01,-4.315197177e-02,0.000000000e+00,4.315196868e-02
2.640000000e-05,2.400000000e+01,1.668387473e-37,2.399758066e+01,2.399870539e+01,2.399753753e+01,-4.315365211e-02,0.000000000e+00,4.315364870e-02
2.660000000e-05,2.400000000e+01,1.553806916e-46,2.399734718e+01,2.399870533e+01,2.399730404e+01,-4.315572151e-02,0.000000000e+00,4.315571776e-02
2.680000000e-05,2.400000000e+01,1.447095458e-55,2.399711369e+01,2.399870525e+01,2.399707056e+01,-4.315817993e-02,0.000000000e+00,4.315817586e-02
2.700000000e-05,2.400000000e+01,1.347712668e-64,2.399688022e+01,2.399870517e+01,2.399683708e+01,-4.316102736e-02,0.000000000e+00,4.316102295e-02
2.720000000e-05,2.400000000e+01,1.255155231e-73,2.399664675e+01,2.399870507e+01,2.399660361e+01,-4.316426375e-02,0.000000000e+00,4.316425901e-02
