time,V(vin),V(g_boost),V(g_buck_h),V(g_buck_l),V(n_lboost),V(boost_sw),V(bus),V(buck_sw),V(n_lbuck),V(out),I(Vin),I(Vg_boost),I(Vg_buck_h),I(Vg_buck_l),I(L_boost),I(L_buck)
0.000000000e+00,1.200000000e+01,1.000000000e+01,1.000000000e+01,0.000000000e+00,0.000000000e+00,0.000000000e+00,0.000000000e+00,0.000000000e+00,0.000000000e+00,0.000000000e+00,-6.000000000e+02,-0.000000000e+00,-0.000000000e+00,-0.000000000e+00,0.000000000e+00,0.000000000e+00
2.000000000e-07,1.200000000e+01,1.000000000e+01,1.000000000e+01,0.000000000e+00,1.199897882e+01,9.573535002e-05,6.382334303e-05,6.382198481e-05,6.381655371e-05,1.154570110e-09,-5.105907722e-02,-0.000000000e+00,-0.000000000e+00,-0.000000000e+00,5.105907695e-02,2.715548900e-07
4.000000000e-07,1.200000000e+01,1.000000000e+01,1.000000000e+01,0.000000000e+00,1.199795774e+01,2.313504066e-04,1.755072561e-04,1.755021635e-04,1.754817983e-04,5.482936185e-09,-1.021132318e-01,-0.000000000e+00,-0.000000000e+00,-0.000000000e+00,1.021132318e-01,1.018262615e-06
6.000000000e-07,1.200000000e+01,1.000000000e+01,1.000000000e+01,0.000000000e+00,1.199693675e+01,3.968680231e-04,3.230792899e-04,3.230673239e-04,3.230194690e-04,1.565151764e-08,-1.531623377e-01,-0.000000000e+00,-0.000000000e+00,-0.000000000e+00,1.531623377e-01,2.392746944e-06
8.000000000e-07,1.200000000e+01,1.000000000e+01,1.000000000e+01,0.000000000e+00,1.199591587e+01,5.848051090e-04,4.975598308e-04,4.975372804e-04,4.974470925e-04,3.481080610e-08,-2.042062997e-01,-0.000000000e+00,-0.000000000e+00,-0.000000000e+00,2.042062997e-01,4.509394951e-06
1.000000000e-06,1.200000000e+01,1.000000000e+01,1.000000000e+01,0.000000000e+00,1.199489510e+01,7.895491735e-04,6.922139612e-04,6.921766868e-04,6.920276086e-04,6.647300109e-08,-2.552450467e-01,-0.000000000e+00,-0.000000000e+00,-0.000000000e+00,2.552450467e-01,7.453910422e-06
1.200000000e-06,1.200000000e+01,1.000000000e+01,1.000000000e+01,0.000000000e+00,1.199387443e+01,1.006890720e-03,9.019903378e-04,9.019338790e-04,9.017080694e-04,1.144202143e-07,-3.062785256e-01,-0.000000000e+00,-0.000000000e+00,-0.000000000e+00,3.062785256e-01,1.129047914e-05
1.400000000e-06,1.200000000e+01,1.000000000e+01,1.000000000e+01,0.000000000e+00,1.199285387e+01,1.233672528e-03,1.123100337e-03,1.123019993e-03,1.122698650e-03,1.826356011e-07,-3.573066966e-01,-0.000000000e+00,-0.000000000e+00,-0.000000000e+00,3.573066966e-01,1.606714303e-05
1.600000000e-06,1.200000000e+01,1.000000000e+01,1.000000000e+01,0.000000000e+00,1.199183341e+01,1.467526613e-03,1.352702405e-03,1.352593296e-03,1.352156899e-03,2.752516886e-07,-4.083295301e-01,-0.000000000e+00,-0.000000000e+00,-0.000000000e+00,4.083295301e-01,2.181983090e-05
1.800000000e-06,1.200000000e+01,1.000000000e+01,1.000000000e+01,0.000000000e+00,1.199081306e+01,1.706676929e-03,1.588665310e-03,1.588522422e-03,1.587950914e-03,3.965116002e-07,-4.593470041e-01,-0.000000000e+00,-0.000000000e+00,-0.000000000e+00,4.593470041e-01,2.857538155e-05
2.000000000e-06,1.200000000e+01,1.000000000e+01,1.000000000e+01,0.000000000e+00,1.198979282e+01,1.949791404e-03,1.829390582e-03,1.829208800e-03,1.828481724e-03,5.507399546e-07,-5.103591021e-01,-0.000000000e+00,-0.000000000e+00,-0.000000000e+00,5.103591021e-01,3.635381127e-05
2.200000000e-06,1.200000000e+01,1.000000000e+01,1.000000000e+01,0.000000000e+00,1.198877268e+01,2.195870955e-03,2.073679333e-03,2.073453468e-03,2.072550068e-03,7.423210194e-07,-5.613658119e-01,-0.000000000e+00,-0.000000000e+00,-0.000000000e+00,5.613658119e-01,4.517001444e-05
2.400000000e-06,1.200000000e+01,1.000000000e+01,1.000000000e+01,0.000000000e+00,1.198775266e+01,2.444166245e-03,2.320632368e-03,2.320357177e-03,2.319256476e-03,9.756823072e-07,-6.123671247e-01,-0.000000000e+00,-0.000000000e+00,-0.000000000e+00,6.123671247e-01,5.503503910e-05
2.600000000e-06,1.200000000e+01,1.000000000e+01,1.000000000e+01,0.000000000e+00,1.198673274e+01,2.694115258e-03,2.569575274e-03,2.569245471e-03,2.567926330e-03,1.255282252e-06,-6.633630337e-01,-0.000000000e+00,-0.000000000e+00,-0.000000000e+00,6.633630337e-01,6.595704356e-05
2.800000000e-06,1.200000000e+01,1.000000000e+01,1.000000000e+01,0.000000000e+00,1.198571293e+01,2.945296468e-03,2.820002226e-03,2.819612496e-03,2.818053656e-03,1.585600949e-06,-7.143535343e-01,-0.000000000e+00,-0.000000000e+00,-0.000000000e+00,7.143535343e-01,7.794201400e-05
3.000000000e-06,1.200000000e+01,1.000000000e+01,1.000000000e+01,0.000000000e+00,1.198469323e+01,3.197393724e-03,3.071533845e-03,3.071078851e-03,3.069258965e-03,1.971133188e-06,-7.653386229e-01,-0.000000000e+00,-0.000000000e+00,-0.000000000e+00,7.653386229e-01,9.099430265e-05
3.200000000e-06,1.200000000e+01,1.000000000e+01,1.000000000e+01,0.000000000e+00,1.198367363e+01,3.450169906e-03,3.323885588e-03,3.323359980e-03,3.321257639e-03,2.416383208e-06,-8.163182972e-01,-0.000000000e+00,-0.000000000e+00,-0.000000000e+00,8.163182972e-01,1.051170314e-04
3.400000000e-06,1.200000000e+01,1.000000000e+01,1.000000000e+01,0.000000000e+00,1.198265415e+01,3.703447169e-03,3.576844046e-03,3.576242459e-03,3.573836211e-03,2.925860750e-06,-8.672925555e-01,-0.000000000e+00,-0.000000000e+00,-0.000000000e+00,8.672925555e-01,1.203123946e-04
3.600000000e-06,1.200000000e+01,1.000000000e+01,1.000000000e+01,0.000000000e+00,1.198163477e+01,3.957092129e-03,3.830249156e-03,3.829566220e-03,3.826834582e-03,3.504078071e-06,-9.182613967e-01,-0.000000000e+00,-0.000000000e+00,-0.000000000e+00,9.182613967e-01,1.365818861e-04
3.800000000e-06,1.200000000e+01,1.000000000e+01,1.000000000e+01,0.000000000e+00,1.198061550e+01,4.211004743e-03,4.083980870e-03,4.083211209e-03,4.080132680e-03,4.155547689e-06,-9.692248201e-01,-0.000000000e+00,-0.000000000e+00,-0.000000000e+00,9.692248201e-01,1.539264696e-04
4.000000000e-06,1.200000000e+01,1.000000000e+01,1.000000000e+01,0.000000000e+00,1.197959634e+01,4.465109981e-03,4.337949150e-03,4.337087386e-03,4.333640452e-03,4.884780669e-06,-1.020182825e+00,-0.000000000e+00,-0.000000000e+00,-0.000000000e+00,1.020182825e+00,1.723467065e-04
4.200000000e-06,1.200000000e+01,1.000000000e+01,1.000000000e+01,0.000000000e+00,1.197857729e+01,4.719351569e-03,4.592086469e-03,4.591127222e-03,4.587290365e-03,5.696285327e-06,-1.071135412e+00,-0.000000000e+00,-0.000000000e+00,-0.000000000e+00,1.071135412e+00,1.918428516e-04
4.400000000e-06,1.200000000e+01,1.000000000e+01,1.000000000e+01,0.000000000e+00,1.197755835e+01,4.973687301e-03,4.846342178e-03,4.845280069e-03,4.841031771e-03,6.594566227e-06,-1.122082581e+00,-0.000000000e+00,-0.000000000e+00,-0.000000000e+00,1.122082581e+00,2.124149248e-04
4.600000000e-06,1.200000000e+01,1.000000000e+01,1.000000000e+01,0.000000000e+00,1.197653951e+01,5.228085524e-03,5.100678295e-03,5.099507945e-03,5.094826690e-03,7.584123422e-06,-1.173024332e+00,-0.000000000e+00,-0.000000000e+00,-0.000000000e+00,1.173024332e+00,2.340627655e-04
4.800000000e-06,1.200000000e+01,1.000000000e+01,1.000000000e+01,0.000000000e+00,1.197552079e+01,5.482522500e-03,5.355066332e-03,5.353782364e-03,5.348646643e-03,8.669451857e-06,-1.223960665e+00,-0.000000000e+00,-0.000000000e+00,-0.000000000e+00,1.223960665e+00,2.567860727e-04
5.000000000e-06,1.200000000e+01,1.000000000e+01,1.000000000e+01,0.000000000e+00,1.197450217e+01,5.736980423e-03,5.609484925e-03,5.608081963e-03,5.602470275e-03,9.855040909e-06,-1.274891581e+00,-0.000000000e+00,-0.000000000e+00,-0.000000000e+00,1.274891581e+00,2.805844354e-04
5.200000000e-06,1.200000000e+01,1.000000000e+01,2.910383046e-10,1.000000000e+01,1.197348366e+01,5.991827763e-03,5.864376235e-03,-1.402497970e-06,-7.012650342e-06,1.103929520e-05,-1.325817078e+00,-0.000000000e+00,-0.000000000e+00,-0.000000000e+00,1.325817078e+00,2.805076186e-04
5.400000000e-06,1.200000000e+01,1.000000000e+01,8.470329473e-21,1.000000000e+01,1.197246526e+01,6.246609661e-03,6.119194434e-03,-1.402085669e-06,-7.010601207e-06,1.222219452e-05,-1.376737157e+00,-0.000000000e+00,-0.000000000e+00,-0.000000000e+00,1.376737157e+00,2.804257769e-04
5.600000000e-06,1.200000000e+01,1.000000000e+01,2.465190329e-31,1.000000000e+01,1.197144696e+01,6.501335709e-03,6.373951029e-03,-1.401649569e-06,-7.008427903e-06,1.340371866e-05,-1.427651819e+00,-0.000000000e+00,-0.000000000e+00,-0.000000000e+00,1.427651819e+00,2.803389167e-04
5.800000000e-06,1.200000000e+01,1.000000000e+01,7.174648137e-42,1.000000000e+01,1.197042878e+01,6.756013098e-03,6.628654649e-03,-1.401188409e-06,-7.006129298e-06,1.458384748e-05,-1.478561065e+00,-0.000000000e+00,-0.000000000e+00,-0.000000000e+00,1.478561065e+00,2.802470445e-04
6.000000000e-06,1.200000000e+01,1.000000000e+01,2.088097430e-52,1.000000000e+01,1.196941070e+01,7.010647223e-03,6.883311770e-03,-1.400702222e-06,-7.003705557e-06,1.576256091e-05,-1.529464895e+00,-0.000000000e+00,-0.000000000e+00,-0.000000000e+00,1.529464895e+00,2.801501667e-04
6.200000000e-06,1.200000000e+01,1.000000000e+01,6.077163357e-63,1.000000000e+01,1.196839273e+01,7.265242133e-03,7.137927247e-03,-1.400191042e-06,-7.001156845e-06,1.693983888e-05,-1.580363310e+00,-0.000000000e+00,-0.000000000e+00,-0.000000000e+00,1.580363310e+00,2.800482901e-04
6.400000000e-06,1.200000000e+01,1.000000000e+01,1.768687320e-73,1.000000000e+01,1.196737487e+01,7.519800863e-03,7.392504722e-03,-1.399654901e-06,-6.998483329e-06,1.811566138e-05,-1.631256310e+00,-0.000000000e+00,-0.000000000e+00,-0.000000000e+00,1.631256310e+00,2.799414214e-04
6.600000000e-06,1.200000000e+01,1.000000000e+01,5.147557589e-84,1.000000000e+01,1.196635712e+01,7.774325692e-03,7.647046930e-03,-1.399093833e-06,-6.995685182e-06,1.929000847e-05,-1.682143897e+00,-0.000000000e+00,-0.000000000e+00,-0.000000000e+00,1.682143897e+00,2.798295674e-04
6.800000000e-06,1.200000000e+01,1.000000000e+01,1.498136434e-94,1.000000000e+01,1.196533948e+01,8.028818327e-03,7.901555920e-03,-1.398507874e-06,-6.992762574e-06,2.046286023e-05,-1.733026070e+00,-0.000000000e+00,-0.000000000e+00,-0.000000000e+00,1.733026070e+00,2.797127350e-04
7.000000000e-06,1.200000000e+01,1.000000000e+01,4.360150876e-105,1.000000000e+01,1.196432194e+01,8.283280053e-03,8.156033230e-03,-1.397897058e-06,-6.989715680e-06,2.163419679e-05,-1.783902830e+00,-0.000000000e+00,-0.000000000e+00,-0.000000000e+00,1.783902830e+00,2.795909311e-04
7.200000000e-06,1.200000000e+01,1.000000000e+01,1.268970919e-115,1.000000000e+01,1.196330452e+01,8.537711831e-03,8.410480016e-03,-1.397261420e-06,-6.986544676e-06,2.280399833e-05,-1.834774178e+00,-0.000000000e+00,-0.000000000e+00,-0.000000000e+00,1.834774178e+00,2.794641628e-04
7.400000000e-06,1.200000000e+01,1.000000000e+01,3.693191447e-126,1.000000000e+01,1.196228720e+01,8.792114385e-03,8.664897144e-03,-1.396600995e-06,-6.983249742e-06,2.397224509e-05,-1.885640115e+00,-0.000000000e+00,-0.000000000e+00,-0.000000000e+00,1.885640115e+00,2.793324373e-04
7.600000000e-06,1.200000000e+01,1.000000000e+01,1.074860177e-136,1.000000000e+01,1.196126999e+01,9.046488258e-03,8.919285265e-03,-1.395915822e-06,-6.979831058e-06,2.513891734e-05,-1.936500640e+00,-0.000000000e+00,-0.000000000e+00,-0.000000000e+00,1.936500640e+00,2.791957618e-04
7.800000000e-06,1.200000000e+01,1.000000000e+01,3.128254836e-147,1.000000000e+01,1.196025288e+01,9.300833856e-03,9.173644868e-03,-1.395205934e-06,-6.976288806e-06,2.630399540e-05,-1.987355755e+00,-0.000000000e+00,-0.000000000e+00,-0.000000000e+00,1.987355755e+00,2.790541436e-04
8.000000000e-06,1.200000000e+01,1.000000000e+01,9.104419838e-158,1.000000000e+01,1.195923589e+01,9.555151487e-03,9.427976320e-03,-1.394471371e-06,-6.972623171e-06,2.746745965e-05,-2.038205461e+00,-0.000000000e+00,-0.000000000e+00,-0.000000000e+00,2.038205461e+00,2.789075900e-04
8.200000000e-06,1.200000000e+01,1.000000000e+01,2.649734914e-168,1.000000000e+01,1.195821900e+01,9.809441381e-03,9.682279896e-03,-1.393712168e-06,-6.968834341e-06,2.862929050e-05,-2.089049757e+00,-0.000000000e+00,-0.000000000e+00,-0.000000000e+00,2.089049757e+00,2.787561086e-04
8.400000000e-06,1.200000000e+01,1.000000000e+01,7.711743568e-179,1.000000000e+01,1.195720223e+01,1.006370371e-02,9.936555806e-03,-1.392928364e-06,-6.964922504e-06,2.978946843e-05,-2.139888644e+00,-0.000000000e+00,-0.000000000e+00,-0.000000000e+00,2.139888644e+00,2.785997070e-04
8.600000000e-06,1.200000000e+01,1.000000000e+01,2.244412773e-189,1.000000000e+01,1.195618556e+01,1.031793861e-02,1.019080421e-02,-1.392119998e-06,-6.960887851e-06,3.094797396e-05,-2.190722123e+00,-0.000000000e+00,-0.000000000e+00,-0.000000000e+00,2.190722123e+00,2.784383927e-04
8.800000000e-06,1.200000000e+01,1.000000000e+01,6.532100883e-200,1.000000000e+01,1.195516900e+01,1.057214618e-02,1.044502521e-02,-1.391287106e-06,-6.956730575e-06,3.210478764e-05,-2.241550195e+00,-0.000000000e+00,-0.000000000e+00,-0.000000000e+00,2.241550195e+00,2.782721735e-04
9.000000000e-06,1.200000000e+01,1.000000000e+01,1.901091566e-210,1.000000000e+01,1.195415254e+01,1.082632649e-02,1.069921892e-02,-1.390429730e-06,-6.952450872e-06,3.325989010e-05,-2.292372860e+00,-0.000000000e+00,-0.000000000e+00,-0.000000000e+00,2.292372860e+00,2.781010571e-04
9.200000000e-06,1.200000000e+01,1.000000000e+01,5.532904663e-221,1.000000000e+01,1.195313620e+01,1.108047959e-02,1.095338539e-02,-1.389547907e-06,-6.948048938e-06,3.441326202e-05,-2.343190118e+00,-0.000000000e+00,-0.000000000e+00,-0.000000000e+00,2.343190118e+00,2.779250515e-04
9.400000000e-06,1.200000000e+01,1.000000000e+01,1.610287192e-231,1.000000000e+01,1.195211996e+01,1.133460554e-02,1.120752468e-02,-1.388641678e-06,-6.943524972e-06,3.556488409e-05,-2.394001971e+00,-0.000000000e+00,-0.000000000e+00,-0.000000000e+00,2.394001971e+00,2.777441647e-04
9.600000000e-06,1.200000000e+01,1.000000000e+01,4.686552543e-242,1.000000000e+01,1.195110383e+01,1.158870437e-02,1.146163682e-02,-1.387711084e-06,-6.938879176e-06,3.671473710e-05,-2.444808418e+00,-0.000000000e+00,-0.000000000e+00,-0.000000000e+00,2.444808418e+00,2.775584046e-04
9.800000000e-06,1.200000000e+01,1.000000000e+01,1.363966307e-252,1.000000000e+01,1.195008781e+01,1.184277609e-02,1.171572185e-02,-1.386756164e-06,-6.934111753e-06,3.786280186e-05,-2.495609461e+00,-0.000000000e+00,-0.000000000e+00,-0.000000000e+00,2.495609461e+00,2.773677794e-04
1.000000000e-05,1.200000000e+01,1.000000000e+01,3.969664413e-263,1.000000000e+01,1.194907190e+01,1.209682074e-02,1.196977979e-02,-1.385776960e-06,-6.929222908e-06,3.900905925e-05,-2.546405099e+00,-0.000000000e+00,-0.000000000e+00,-0.000000000e+00,2.546405099e+00,2.771722974e-04
1.020000000e-05,1.200000000e+01,2.910383046e-10,1.155324401e-273,1.000000000e+01,1.194805672e+01,1.976123674e-02,1.716407296e-02,-1.384738629e-06,-6.924177967e-06,4.015349018e-05,-2.597163803e+00,-0.000000000e+00,-0.000000000e+00,-0.000000000e+00,2.597163803e+00,2.769719669e-04
1.040000000e-05,1.200000000e+01,8.470329473e-21,3.362436548e-284,1.000000000e+01,1.194704209e+01,2.510771419e-02,2.245981878e-02,-1.383675382e-06,-6.919011309e-06,4.129607563e-05,-2.647895439e+00,-0.000000000e+00,-0.000000000e+00,-0.000000000e+00,2.647895439e+00,2.767667963e-04
1.060000000e-05,1.200000000e+01,2.465190329e-31,9.785978320e-295,1.000000000e+01,1.194602801e+01,3.055556159e-02,2.785696206e-02,-1.382587261e-06,-6.913723143e-06,4.243679663e-05,-2.698599577e+00,-0.000000000e+00,-0.000000000e+00,-0.000000000e+00,2.698599577e+00,2.765567941e-04
1.080000000e-05,1.200000000e+01,7.174648137e-42,2.848094539e-305,1.000000000e+01,1.194501448e+01,3.610472247e-02,3.335544673e-02,-1.381474309e-06,-6.908313685e-06,4.357563426e-05,-2.749275789e+00,-0.000000000e+00,-0.000000000e+00,-0.000000000e+00,2.749275789e+00,2.763419688e-04
1.100000000e-05,1.200000000e+01,2.088097430e-52,8.289046058e-316,1.000000000e+01,1.194400153e+01,4.175513947e-02,3.895521588e-02,-1.380336569e-06,-6.902783149e-06,4.471256964e-05,-2.799923646e+00,-0.000000000e+00,-0.000000000e+00,-0.000000000e+00,2.799923646e+00,2.761223290e-04
1.120000000e-05,1.200000000e+01,6.077163357e-63,4.940656458e-324,1.000000000e+01,1.194298915e+01,4.750675440e-02,4.465621175e-02,-1.379174086e-06,-6.897131754e-06,4.584758396e-05,-2.850542720e+00,-0.000000000e+00,-0.000000000e+00,-0.000000000e+00,2.850542720e+00,2.758978834e-04
1.140000000e-05,1.200000000e+01,1.768687320e-73,4.940656458e-324,1.000000000e+01,1.194197735e+01,5.335950821e-02,5.045837571e-02,-1.377986903e-06,-6.891359718e-06,4.698065847e-05,-2.901132583e+00,-0.000000000e+00,-0.000000000e+00,-0.000000000e+00,2.901132583e+00,2.756686408e-04
1.160000000e-05,1.200000000e+01,5.147557589e-84,4.940656458e-324,1.000000000e+01,1.194096614e+01,5.931334099e-02,5.636164827e-02,-1.376775065e-06,-6.885467263e-06,4.811177445e-05,-2.951692808e+00,-0.000000000e+00,-0.000000000e+00,-0.000000000e+00,2.951692808e+00,2.754346099e-04
1.180000000e-05,1.200000000e+01,1.498136434e-94,4.940656458e-324,1.000000000e+01,1.193995554e+01,6.536819199e-02,6.236596911e-02,-1.375538617e-06,-6.879454614e-06,4.924091325e-05,-3.002222967e+00,-0.000000000e+00,-0.000000000e+00,-0.000000000e+00,3.002222967e+00,2.751957999e-04
1.200000000e-05,1.200000000e+01,4.360150876e-105,4.940656458e-324,1.000000000e+01,1.193894555e+01,7.152399957e-02,6.847127704e-02,-1.374277605e-06,-6.873321995e-06,5.036805626e-05,-3.052722633e+00,-0.000000000e+00,-0.000000000e+00,-0.000000000e+00,3.052722633e+00,2.749522195e-04
1.220000000e-05,1.200000000e+01,1.268970919e-115,4.940656458e-324,1.000000000e+01,1.193793617e+01,7.778070128e-02,7.467751001e-02,-1.372992074e-06,-6.867069634e-06,5.149318495e-05,-3.103191379e+00,-0.000000000e+00,-0.000000000e+00,-0.000000000e+00,3.103191379e+00,2.747038780e-04
1.240000000e-05,1.200000000e+01,3.693191447e-126,4.940656458e-324,1.000000000e+01,1.193692742e+01,8.413823380e-02,8.098460514e-02,-1.371682071e-06,-6.860697761e-06,5.261628081e-05,-3.153628780e+00,-0.000000000e+00,-0.000000000e+00,-0.000000000e+00,3.153628780e+00,2.744507845e-04
1.260000000e-05,1.200000000e+01,1.074860177e-136,4.940656458e-324,1.000000000e+01,1.193591931e+01,9.059653295e-02,8.739249867e-02,-1.370347642e-06,-6.854206606e-06,5.373732542e-05,-3.204034409e+00,-0.000000000e+00,-0.000000000e+00,-0.000000000e+00,3.204034409e+00,2.741929482e-04
1.280000000e-05,1.200000000e+01,3.128254836e-147,4.940656458e-324,1.000000000e+01,1.193491184e+01,9.715553371e-02,9.390112600e-02,-1.368988835e-06,-6.847596403e-06,5.485630039e-05,-3.254407840e+00,-0.000000000e+00,-0.000000000e+00,-0.000000000e+00,3.254407840e+00,2.739303784e-04
1.300000000e-05,1.200000000e+01,9.104419838e-158,4.940656458e-324,1.000000000e+01,1.193390503e+01,1.038151702e-01,1.005104217e-01,-1.367605696e-06,-6.840867388e-06,5.597318740e-05,-3.304748648e+00,-0.000000000e+00,-0.000000000e+00,-0.000000000e+00,3.304748648e+00,2.736630846e-04
1.320000000e-05,1.200000000e+01,2.649734914e-168,4.940656458e-324,1.000000000e+01,1.193289887e+01,1.105753757e-01,1.072203195e-01,-1.366198275e-06,-6.834019797e-06,5.708796818e-05,-3.355056408e+00,-0.000000000e+00,-0.000000000e+00,-0.000000000e+00,3.355056408e+00,2.733910761e-04
1.340000000e-05,1.200000000e+01,7.711743568e-179,4.940656458e-324,1.000000000e+01,1.193189339e+01,1.174360827e-01,1.140307521e-01,-1.364766617e-06,-6.827053869e-06,5.820062451e-05,-3.405330694e+00,-0.000000000e+00,-0.000000000e+00,-0.000000000e+00,3.405330694e+00,2.731143626e-04
1.360000000e-05,1.200000000e+01,2.244412773e-189,4.940656458e-324,1.000000000e+01,1.193088858e+01,1.243972226e-01,1.209416517e-01,-1.363310774e-06,-6.819969846e-06,5.931113823e-05,-3.455571083e+00,-0.000000000e+00,-0.000000000e+00,-0.000000000e+00,3.455571083e+00,2.728329536e-04
1.380000000e-05,1.200000000e+01,6.532100883e-200,4.940656458e-324,1.000000000e+01,1.192988446e+01,1.314587263e-01,1.279529494e-01,-1.361830792e-06,-6.812767970e-06,6.041949126e-05,-3.505777150e+00,-0.000000000e+00,-0.000000000e+00,-0.000000000e+00,3.505777150e+00,2.725468589e-04
1.400000000e-05,1.200000000e+01,1.901091566e-210,4.940656458e-324,1.000000000e+01,1.192888103e+01,1.386205237e-01,1.350645754e-01,-1.360326722e-06,-6.805448486e-06,6.152566554e-05,-3.555948471e+00,-0.000000000e+00,-0.000000000e+00,-0.000000000e+00,3.555948471e+00,2.722560882e-04
