time,V(vin),V(vref),V(pi_out),V(out),V(pgin),V(sw),V(n_l),V(n_esr),I(Vin),I(Vref),I(V_pgin),I(L1)
0.000000000e+00,1.200000000e+01,7.000000000e+00,0.000000000e+00,0.000000000e+00,0.000000000e+00,0.000000000e+00,0.000000000e+00,0.000000000e+00,-0.000000000e+00,-0.000000000e+00,-0.000000000e+00,0.000000000e+00
5.000000000e-07,1.200000000e+01,7.000000000e+00,0.000000000e+00,1.858596523e-03,0.000000000e+00,1.199999961e+01,1.192287053e+01,2.114086685e-02,-3.856454186e-01,-0.000000000e+00,-0.000000000e+00,3.856454066e-01
1.000000000e-06,1.200000000e+01,7.000000000e+00,0.000000000e+00,8.963772430e-03,0.000000000e+00,1.199999902e+01,1.180462523e+01,5.780722005e-02,-9.768689645e-01,-0.000000000e+00,-0.000000000e+00,9.768689525e-01
1.500000000e-06,1.200000000e+01,7.000000000e+00,0.000000000e+00,2.247219100e-02,0.000000000e+00,1.199999844e+01,1.168795147e+01,1.004839339e-01,-1.560234870e+00,-0.000000000e+00,-0.000000000e+00,1.560234858e+00
2.000000000e-06,1.200000000e+01,7.000000000e+00,0.000000000e+00,4.205670957e-02,0.000000000e+00,1.199999786e+01,1.157289153e+01,1.488332931e-01,-2.135531683e+00,-0.000000000e+00,-0.000000000e+00,2.135531671e+00
2.500000000e-06,1.200000000e+01,7.000000000e+00,0.000000000e+00,6.768465944e-02,0.000000000e+00,1.199999730e+01,1.145948565e+01,2.028125711e-01,-2.702558246e+00,-0.000000000e+00,-0.000000000e+00,2.702558234e+00
3.000000000e-06,1.200000000e+01,7.000000000e+00,0.000000000e+00,9.923461711e-02,0.000000000e+00,1.199999674e+01,1.134777272e+01,2.622906216e-01,-3.261120102e+00,-0.000000000e+00,-0.000000000e+00,3.261120090e+00
3.500000000e-06,1.200000000e+01,7.000000000e+00,0.000000000e+00,1.366088022e-01,0.000000000e+00,1.199999619e+01,1.123779008e+01,3.271603290e-01,-3.811030548e+00,-0.000000000e+00,-0.000000000e+00,3.811030536e+00
4.000000000e-06,1.200000000e+01,7.000000000e+00,0.000000000e+00,1.797002522e-01,0.000000000e+00,1.199999565e+01,1.112957359e+01,3.973057674e-01,-4.352110316e+00,-0.000000000e+00,-0.000000000e+00,4.352110304e+00
4.500000000e-06,1.200000000e+01,7.000000000e+00,0.000000000e+00,2.284025483e-01,0.000000000e+00,1.199999512e+01,1.102315759e+01,4.726119307e-01,-4.884187660e+00,-0.000000000e+00,-0.000000000e+00,4.884187648e+00
5.000000000e-06,1.200000000e+01,7.000000000e+00,0.000000000e+00,2.826070735e-01,0.000000000e+00,1.199999459e+01,1.091857493e+01,5.529619885e-01,-5.407098312e+00,-0.000000000e+00,-0.000000000e+00,5.407098300e+00
5.500000000e-06,1.200000000e+01,7.000000000e+00,0.000000000e+00,2.320223095e-01,0.000000000e+00,3.469862889e+03,3.470932944e+03,-3.549127474e-02,-5.403640449e+00,0.000000000e+00,0.000000000e+00,-5.350271686e+00
6.000000000e-06,1.200000000e+01,7.000000000e+00,0.000000000e+00,1.781524323e-01,0.000000000e+00,-3.445762435e+03,-3.444823389e+03,-5.660908262e-02,1.544911833e+01,0.000000000e+00,0.000000000e+00,-4.695230297e+00
6.500000000e-06,1.200000000e+01,7.000000000e+00,0.000000000e+00,1.297369941e-01,0.000000000e+00,3.457807637e+03,3.458676696e+03,-8.752771537e-02,-1.210928856e+03,0.000000000e+00,0.000000000e+00,-4.345294189e+00
7.000000000e-06,1.200000000e+01,7.000000000e+00,0.000000000e+00,8.550552130e-02,0.000000000e+00,3.445762666e+03,3.446554725e+03,-1.125093649e-01,-2.415426023e+03,0.000000000e+00,0.000000000e+00,-3.960297725e+00
7.500000000e-06,1.200000000e+01,7.000000000e+00,0.000000000e+00,4.665959207e-02,0.000000000e+00,-3.421689900e+03,-3.421026639e+03,-1.191556053e-01,2.422702601e+03,0.000000000e+00,0.000000000e+00,-3.316303948e+00
8.000000000e-06,1.200000000e+01,7.000000000e+00,0.000000000e+00,1.311739204e-02,0.000000000e+00,3.433721370e+03,3.434316905e+03,-1.357663210e-01,-3.619555612e+03,0.000000000e+00,0.000000000e+00,-2.977674262e+00
8.500000000e-06,1.200000000e+01,7.000000000e+00,0.000000000e+00,-1.639601695e-02,0.000000000e+00,3.421690126e+03,3.422211050e+03,-1.466269517e-01,-4.822679938e+03,0.000000000e+00,0.000000000e+00,-2.604618696e+00
9.000000000e-06,1.200000000e+01,7.000000000e+00,0.000000000e+00,-4.068663640e-02,0.000000000e+00,-3.397644346e+03,-3.397249659e+03,-1.393583510e-01,4.827257967e+03,0.000000000e+00,0.000000000e+00,-1.973434291e+00
9.500000000e-06,1.200000000e+01,7.000000000e+00,0.000000000e+00,-5.984176458e-02,0.000000000e+00,3.409662452e+03,3.409992020e+03,-1.422335389e-01,-6.025447332e+03,0.000000000e+00,0.000000000e+00,-1.647835486e+00
1.000000000e-05,1.200000000e+01,7.000000000e+00,0.000000000e+00,-7.514032467e-02,0.000000000e+00,3.397644567e+03,3.397902247e+03,-1.395602092e-01,-7.227235865e+03,0.000000000e+00,0.000000000e+00,-1.288397691e+00
1.050000000e-05,1.200000000e+01,7.000000000e+00,0.000000000e+00,-8.539529596e-02,0.000000000e+00,-3.373624967e+03,-3.373490638e+03,-1.189774977e-01,7.229195882e+03,0.000000000e+00,0.000000000e+00,-6.716440352e-01
1.100000000e-05,1.200000000e+01,7.000000000e+00,0.000000000e+00,-9.069894449e-02,0.000000000e+00,3.385630128e+03,3.385702261e+03,-1.087319813e-01,-8.428679730e+03,0.000000000e+00,0.000000000e+00,-3.606607363e-01
1.150000000e-05,1.200000000e+01,7.000000000e+00,0.000000000e+00,-9.233370061e-02,0.000000000e+00,3.373625181e+03,3.373628457e+03,-9.315254809e-02,-9.629174462e+03,0.000000000e+00,0.000000000e+00,-1.637694955e-02
1.200000000e-05,1.200000000e+01,7.000000000e+00,0.000000000e+00,-8.911891152e-02,0.000000000e+00,-3.349630862e+03,-3.349747756e+03,-5.989557273e-02,9.628606349e+03,0.000000000e+00,0.000000000e+00,5.844667759e-01
1.250000000e-05,1.200000000e+01,7.000000000e+00,0.000000000e+00,-8.115129316e-02,0.000000000e+00,3.361623543e+03,3.361447665e+03,-3.718172142e-02,-1.082933828e+04,0.000000000e+00,0.000000000e+00,8.793914349e-01
1.300000000e-05,1.200000000e+01,7.000000000e+00,0.000000000e+00,-6.971630890e-02,0.000000000e+00,3.349631069e+03,3.349389643e+03,-9.359959443e-03,-1.202858572e+04,0.000000000e+00,0.000000000e+00,1.207126989e+00
1.350000000e-05,1.200000000e+01,7.000000000e+00,0.000000000e+00,-5.363905947e-02,0.000000000e+00,-3.325661047e+03,-3.326019192e+03,3.589718206e-02,1.202558785e+04,0.000000000e+00,0.000000000e+00,1.790724831e+00
1.400000000e-05,1.200000000e+01,7.000000000e+00,0.000000000e+00,-3.302019366e-02,0.000000000e+00,3.337641752e+03,3.337228094e+03,7.039431093e-02,-1.322751735e+04,0.000000000e+00,0.000000000e+00,2.068290092e+00
1.450000000e-05,1.200000000e+01,7.000000000e+00,0.000000000e+00,-9.147739618e-03,0.000000000e+00,3.325661245e+03,3.325185599e+03,1.097635517e-01,-1.442556812e+04,0.000000000e+00,0.000000000e+00,2.378225827e+00
1.500000000e-05,1.200000000e+01,7.000000000e+00,0.000000000e+00,1.914806411e-02,0.000000000e+00,-3.301714461e+03,-3.302303138e+03,1.663173311e-01,1.442024648e+04,0.000000000e+00,0.000000000e+00,2.943385340e+00
1.550000000e-05,1.200000000e+01,7.000000000e+00,0.000000000e+00,5.017554904e-02,0.000000000e+00,3.301655991e+03,3.301075262e+03,1.953578765e-01,-1.442024651e+04,0.000000000e+00,0.000000000e+00,2.903646548e+00
1.600000000e-05,1.200000000e+01,7.000000000e+00,0.000000000e+00,8.266897009e-02,0.000000000e+00,3.289683902e+03,3.289044177e+03,2.426002337e-01,-1.561745538e+04,0.000000000e+00,0.000000000e+00,3.198625271e+00
1.650000000e-05,1.200000000e+01,7.000000000e+00,0.000000000e+00,1.194063521e-01,0.000000000e+00,-3.265753373e+03,-3.266503056e+03,3.068272322e-01,1.561050831e+04,0.000000000e+00,0.000000000e+00,3.748417604e+00
1.700000000e-05,1.200000000e+01,7.000000000e+00,0.000000000e+00,1.602816698e-01,0.000000000e+00,3.277714670e+03,3.276916254e+03,3.598856564e-01,-1.681437856e+04,0.000000000e+00,0.000000000e+00,3.992079733e+00
1.750000000e-05,1.200000000e+01,7.000000000e+00,0.000000000e+00,2.040037610e-01,0.000000000e+00,3.265753552e+03,3.264900054e+03,4.173780348e-01,-1.801049044e+04,0.000000000e+00,0.000000000e+00,4.267485476e+00
1.800000000e-05,1.200000000e+01,7.000000000e+00,0.000000000e+00,2.517351940e-01,0.000000000e+00,-3.241844198e+03,-3.242803633e+03,4.915937802e-01,1.800142576e+04,0.000000000e+00,0.000000000e+00,4.797171724e+00
1.850000000e-05,1.200000000e+01,7.000000000e+00,0.000000000e+00,3.033674089e-01,0.000000000e+00,3.253795109e+03,3.252790968e+03,5.544026686e-01,-1.920633470e+04,0.000000000e+00,0.000000000e+00,5.020705194e+00
1.900000000e-05,1.200000000e+01,7.000000000e+00,0.000000000e+00,3.576079174e-01,0.000000000e+00,3.241844366e+03,3.240789230e+03,6.213917493e-01,-2.040140902e+04,0.000000000e+00,0.000000000e+00,5.275676638e+00
1.950000000e-05,1.200000000e+01,7.000000000e+00,0.000000000e+00,4.156158274e-01,0.000000000e+00,-3.217954967e+03,-3.219111858e+03,7.048385864e-01,2.039034886e+04,0.000000000e+00,0.000000000e+00,5.784455182e+00
2.000000000e-05,1.200000000e+01,7.000000000e+00,0.000000000e+00,4.772805353e-01,0.000000000e+00,3.229896110e+03,3.228698692e+03,7.766349941e-01,-2.159623463e+04,0.000000000e+00,0.000000000e+00,5.987089177e+00
2.050000000e-05,1.200000000e+01,7.000000000e+00,0.000000000e+00,5.413086547e-01,0.000000000e+00,3.217955123e+03,3.216710942e+03,8.523538224e-01,-2.279033332e+04,0.000000000e+00,0.000000000e+00,6.220903354e+00
2.100000000e-05,1.200000000e+01,7.000000000e+00,0.000000000e+00,6.088564258e-01,0.000000000e+00,-3.194084413e+03,-3.195426035e+03,9.442619573e-01,2.277740428e+04,0.000000000e+00,0.000000000e+00,6.708110630e+00
2.150000000e-05,1.200000000e+01,7.000000000e+00,0.000000000e+00,6.798116812e-01,0.000000000e+00,3.206016426e+03,3.204638584e+03,1.024272231e+00,-2.398420294e+04,0.000000000e+00,0.000000000e+00,6.889211002e+00
2.200000000e-05,1.200000000e+01,7.000000000e+00,0.000000000e+00,7.528805497e-01,0.000000000e+00,3.194084556e+03,3.192664300e+03,1.107944588e+00,-2.517739000e+04,0.000000000e+00,0.000000000e+00,7.101280775e+00
2.250000000e-05,1.200000000e+01,7.000000000e+00,0.000000000e+00,8.292169846e-01,0.000000000e+00,-3.170231233e+03,-3.171744511e+03,1.207536409e+00,2.516272231e+04,0.000000000e+00,0.000000000e+00,7.566388481e+00
2.300000000e-05,1.200000000e+01,7.000000000e+00,0.000000000e+00,9.087077207e-01,0.000000000e+00,3.182154774e+03,3.180609683e+03,1.294980464e+00,-2.637036823e+04,0.000000000e+00,0.000000000e+00,7.725454862e+00
2.350000000e-05,1.200000000e+01,7.000000000e+00,0.000000000e+00,9.900588001e-01,0.000000000e+00,3.170231362e+03,3.168648297e+03,1.385825093e+00,-2.756270934e+04,0.000000000e+00,0.000000000e+00,7.915325850e+00
2.400000000e-05,1.200000000e+01,7.000000000e+00,0.000000000e+00,1.074422455e+00,0.000000000e+00,-3.146394095e+03,-3.148065683e+03,1.492319335e+00,2.754643606e+04,0.000000000e+00,0.000000000e+00,8.357937600e+00
2.450000000e-05,1.200000000e+01,7.000000000e+00,0.000000000e+00,1.161684775e+00,0.000000000e+00,3.158309833e+03,3.156610913e+03,1.586414775e+00,-2.875486233e+04,0.000000000e+00,0.000000000e+00,8.494599992e+00
2.500000000e-05,1.200000000e+01,7.000000000e+00,0.000000000e+00,1.080545088e+00,0.000000000e+00,8.589213891e+03,8.590901195e+03,6.587189461e-01,-2.875485690e+04,0.000000000e+00,0.000000000e+00,-8.436522846e+00
2.550000000e-05,1.200000000e+01,7.000000000e+00,0.000000000e+00,1.078241432e+00,0.000000000e+00,-7.912186811e+03,-7.913873850e+03,1.500001072e+00,2.875485755e+04,0.000000000e+00,0.000000000e+00,8.435192792e+00
2.600000000e-05,1.200000000e+01,7.000000000e+00,0.000000000e+00,1.164715544e+00,0.000000000e+00,7.912019754e+03,7.910365648e+03,1.578242128e+00,-2.875485757e+04,0.000000000e+00,0.000000000e+00,8.270531664e+00
2.650000000e-05,1.200000000e+01,7.000000000e+00,0.000000000e+00,1.251209895e+00,0.000000000e+00,7.900101880e+03,7.898413754e+03,1.673241534e+00,-2.994664497e+04,0.000000000e+00,0.000000000e+00,8.440632779e+00
2.700000000e-05,1.200000000e+01,7.000000000e+00,0.000000000e+00,1.340495298e+00,0.000000000e+00,-7.876274920e+03,-7.878047593e+03,1.783663506e+00,2.992934095e+04,0.000000000e+00,0.000000000e+00,8.863364163e+00
2.750000000e-05,1.200000000e+01,7.000000000e+00,0.000000000e+00,1.432458386e+00,0.000000000e+00,7.888185702e+03,7.886389645e+03,1.881472738e+00,-3.113826277e+04,0.000000000e+00,0.000000000e+00,8.980287044e+00
2.800000000e-05,1.200000000e+01,7.000000000e+00,0.000000000e+00,1.525806656e+00,0.000000000e+00,7.876275024e+03,7.874449444e+03,1.982201719e+00,-3.232933058e+04,0.000000000e+00,0.000000000e+00,9.127901263e+00
2.850000000e-05,1.200000000e+01,7.000000000e+00,0.000000000e+00,1.621691509e+00,0.000000000e+00,-7.852461583e+03,-7.854367173e+03,2.098089047e+00,3.231067470e+04,0.000000000e+00,0.000000000e+00,9.527950764e+00
2.900000000e-05,1.200000000e+01,7.000000000e+00,0.000000000e+00,1.719999690e+00,0.000000000e+00,7.864365831e+03,7.862441366e+03,2.201115963e+00,-3.352024984e+04,0.000000000e+00,0.000000000e+00,9.622325473e+00
2.950000000e-05,1.200000000e+01,7.000000000e+00,0.000000000e+00,1.819439614e+00,0.000000000e+00,7.852461672e+03,7.850512203e+03,2.306807019e+00,-3.471066574e+04,0.000000000e+00,0.000000000e+00,9.747348107e+00
3.000000000e-05,1.200000000e+01,7.000000000e+00,0.000000000e+00,1.921162447e+00,0.000000000e+00,-7.828660393e+03,-7.830685326e+03,2.427395695e+00,3.469079370e+04,0.000000000e+00,0.000000000e+00,1.012466496e+01
3.050000000e-05,1.200000000e+01,7.000000000e+00,0.000000000e+00,2.025055446e+00,0.000000000e+00,7.840558787e+03,7.838519495e+03,2.534878562e+00,-3.590095426e+04,0.000000000e+00,0.000000000e+00,1.019646233e+01
3.100000000e-05,1.200000000e+01,7.000000000e+00,0.000000000e+00,2.129828267e+00,0.000000000e+00,7.828660468e+03,7.826600687e+03,2.644773489e+00,-3.709078615e+04,0.000000000e+00,0.000000000e+00,1.029890443e+01
3.150000000e-05,1.200000000e+01,7.000000000e+00,0.000000000e+00,2.236632333e+00,0.000000000e+00,-7.804869993e+03,-7.807000703e+03,2.769309929e+00,3.706983367e+04,0.000000000e+00,0.000000000e+00,1.065355194e+01
3.200000000e-05,1.200000000e+01,7.000000000e+00,0.000000000e+00,2.345355787e+00,0.000000000e+00,7.816763211e+03,7.814622640e+03,2.880498544e+00,-3.828051187e+04,0.000000000e+00,0.000000000e+00,1.070285514e+01
3.250000000e-05,1.200000000e+01,7.000000000e+00,0.000000000e+00,2.454709836e+00,0.000000000e+00,7.804870054e+03,7.802713487e+03,2.993851753e+00,-3.946982755e+04,0.000000000e+00,0.000000000e+00,1.078283834e+01
3.300000000e-05,1.200000000e+01,7.000000000e+00,0.000000000e+00,2.565846621e+00,0.000000000e+00,-7.781089033e+03,-7.783312030e+03,3.121596048e+00,3.944792970e+04,0.000000000e+00,0.000000000e+00,1.111498855e+01
3.350000000e-05,1.200000000e+01,7.000000000e+00,0.000000000e+00,2.678655535e+00,0.000000000e+00,7.792977748e+03,7.790749350e+03,3.235754924e+00,-4.065905819e+04,0.000000000e+00,0.000000000e+00,1.114198777e+01
3.400000000e-05,1.200000000e+01,7.000000000e+00,0.000000000e+00,2.569540112e+00,0.000000000e+00,1.491414710e+04,1.491637030e+04,2.013740132e+00,-4.065905107e+04,0.000000000e+00,0.000000000e+00,-1.111599961e+01
3.450000000e-05,1.200000000e+01,7.000000000e+00,0.000000000e+00,2.564069439e+00,0.000000000e+00,-1.401980455e+04,-1.402202740e+04,3.119781185e+00,4.065905194e+04,0.000000000e+00,0.000000000e+00,1.111423493e+01
3.500000000e-05,1.200000000e+01,7.000000000e+00,0.000000000e+00,2.675276412e+00,0.000000000e+00,1.401958500e+04,1.401741689e+04,3.217303673e+00,-4.065905196e+04,0.000000000e+00,0.000000000e+00,1.084054522e+01
3.550000000e-05,1.200000000e+01,7.000000000e+00,0.000000000e+00,2.568952269e+00,0.000000000e+00,2.094795537e+04,2.095011902e+04,2.028039192e+00,-4.065904503e+04,0.000000000e+00,0.000000000e+00,-1.081826153e+01
3.600000000e-05,1.200000000e+01,7.000000000e+00,0.000000000e+00,2.563483098e+00,0.000000000e+00,-2.007743112e+04,-2.007959443e+04,3.104310322e+00,4.065904588e+04,0.000000000e+00,0.000000000e+00,1.081654448e+01
3.650000000e-05,1.200000000e+01,7.000000000e+00,0.000000000e+00,2.671548763e+00,0.000000000e+00,2.007721749e+04,2.007510813e+04,3.198889108e+00,-4.065904590e+04,0.000000000e+00,0.000000000e+00,1.054680690e+01
3.700000000e-05,1.200000000e+01,7.000000000e+00,0.000000000e+00,2.567945571e+00,0.000000000e+00,2.681771729e+04,2.681982291e+04,2.041539866e+00,-4.065903916e+04,0.000000000e+00,0.000000000e+00,-1.052811411e+01
3.750000000e-05,1.200000000e+01,7.000000000e+00,0.000000000e+00,2.453832748e+00,0.000000000e+00,-2.679351280e+04,-2.679152865e+04,1.957795697e+00,4.067948799e+04,0.000000000e+00,0.000000000e+00,-9.920741014e+00
3.800000000e-05,1.200000000e+01,7.000000000e+00,0.000000000e+00,2.344808128e+00,0.000000000e+00,2.680561048e+04,2.680753371e+04,1.864000164e+00,-4.186971954e+04,0.000000000e+00,0.000000000e+00,-9.616159296e+00
3.850000000e-05,1.200000000e+01,7.000000000e+00,0.000000000e+00,2.239633988e+00,0.000000000e+00,2.679351298e+04,2.679536753e+04,1.775996017e+00,-4.307946940e+04,0.000000000e+00,0.000000000e+00,-9.272759417e+00
3.900000000e-05,1.200000000e+01,7.000000000e+00,0.000000000e+00,2.139558256e+00,0.000000000e+00,-2.676933360e+04,-2.676760047e+04,1.706276275e+00,4.309740778e+04,0.000000000e+00,0.000000000e+00,-8.665639635e+00
3.950000000e-05,1.200000000e+01,7.000000000e+00,0.000000000e+00,2.044536175e+00,0.000000000e+00,2.678141874e+04,2.678309107e+04,1.626451537e+00,-4.428889411e+04,0.000000000e+00,0.000000000e+00,-8.361692752e+00
4.000000000e-05,1.200000000e+01,7.000000000e+00,0.000000000e+00,1.953324222e+00,0.000000000e+00,2.676933379e+04,2.677093772e+04,1.552341553e+00,-4.549738891e+04,0.000000000e+00,0.000000000e+00,-8.019653383e+00
4.050000000e-05,1.200000000e+01,7.000000000e+00,0.000000000e+00,1.867161500e+00,0.000000000e+00,-2.674517944e+04,-2.674369647e+04,1.496419434e+00,4.551282338e+04,0.000000000e+00,0.000000000e+00,-7.414841316e+00
4.100000000e-05,1.200000000e+01,7.000000000e+00,0.000000000e+00,1.785996475e+00,0.000000000e+00,2.675725208e+04,2.675867480e+04,1.430318887e+00,-4.670555918e+04,0.000000000e+00,0.000000000e+00,-7.113551760e+00
4.150000000e-05,1.200000000e+01,7.000000000e+00,0.000000000e+00,1.708580213e+00,0.000000000e+00,2.674517963e+04,2.674653461e+04,1.369837121e+00,-4.791280437e+04,0.000000000e+00,0.000000000e+00,-6.774861838e+00
4.200000000e-05,1.200000000e+01,7.000000000e+00,0.000000000e+00,1.636143421e+00,0.000000000e+00,-2.672105014e+04,-2.671981528e+04,1.327427905e+00,4.792575352e+04,0.000000000e+00,0.000000000e+00,-6.174310316e+00
4.250000000e-05,1.200000000e+01,7.000000000e+00,0.000000000e+00,1.568628190e+00,0.000000000e+00,2.673311040e+04,2.673428592e+04,1.274748256e+00,-4.911972756e+04,0.000000000e+00,0.000000000e+00,-5.877598686e+00
4.300000000e-05,1.200000000e+01,7.000000000e+00,0.000000000e+00,1.504780566e+00,0.000000000e+00,2.672105033e+04,2.672215916e+04,1.227573400e+00,-5.032573451e+04,0.000000000e+00,0.000000000e+00,-5.544143325e+00
4.350000000e-05,1.200000000e+01,7.000000000e+00,0.000000000e+00,1.445823319e+00,0.000000000e+00,-2.669694539e+04,-2.669595545e+04,1.198338396e+00,5.033622833e+04,0.000000000e+00,0.000000000e+00,-4.949698456e+00
4.400000000e-05,1.200000000e+01,7.000000000e+00,0.000000000e+00,1.391692573e+00,0.000000000e+00,2.670899344e+04,2.670992531e+04,1.158723649e+00,-5.153142379e+04,0.000000000e+00,0.000000000e+00,-4.659378488e+00
4.450000000e-05,1.200000000e+01,7.000000000e+00,0.000000000e+00,1.341129755e+00,0.000000000e+00,2.669694558e+04,2.669781217e+04,1.124483042e+00,-5.273620945e+04,0.000000000e+00,0.000000000e+00,-4.332934261e+00
4.500000000e-05,1.200000000e+01,7.000000000e+00,0.000000000e+00,1.338275736e+00,0.000000000e+00,-2.634765859e+04,-2.634852504e+04,1.554888720e+00,5.273620977e+04,0.000000000e+00,0.000000000e+00,4.332259687e+00
4.550000000e-05,1.200000000e+01,7.000000000e+00,0.000000000e+00,1.380814073e+00,0.000000000e+00,2.634757318e+04,2.634673142e+04,1.591252363e+00,-5.273620980e+04,0.000000000e+00,0.000000000e+00,4.208765782e+00
4.600000000e-05,1.200000000e+01,7.000000000e+00,0.000000000e+00,1.338738259e+00,0.000000000e+00,2.903677613e+04,2.903761912e+04,1.127989932e+00,-5.273620711e+04,0.000000000e+00,0.000000000e+00,-4.214966541e+00
4.650000000e-05,1.200000000e+01,7.000000000e+00,0.000000000e+00,1.294209772e+00,0.000000000e+00,-2.901269768e+04,-2.901197172e+04,1.112719809e+00,5.274405185e+04,0.000000000e+00,0.000000000e+00,-3.629799270e+00
