time,V(vin),V(vref),V(pi_out),V(out),V(pgin),V(sw),V(n_l),V(n_esr),I(Vin),I(Vref),I(V_pgin),I(L1)
0.000000000e+00,1.000000000e+01,5.000000000e+00,0.000000000e+00,0.000000000e+00,0.000000000e+00,0.000000000e+00,0.000000000e+00,0.000000000e+00,-0.000000000e+00,-0.000000000e+00,-0.000000000e+00,0.000000000e+00
5.000000000e-07,1.000000000e+01,5.000000000e+00,0.000000000e+00,7.284500584e-04,0.000000000e+00,9.999999679e+00,9.935722205e+00,1.679781838e-02,-3.213873765e-01,-0.000000000e+00,-0.000000000e+00,3.213873665e-01
1.000000000e-06,1.000000000e+01,5.000000000e+00,0.000000000e+00,3.514812482e-03,0.000000000e+00,9.999999186e+00,9.837161977e+00,4.422411475e-02,-8.141860553e-01,-0.000000000e+00,-0.000000000e+00,8.141860453e-01
1.500000000e-06,1.000000000e+01,5.000000000e+00,0.000000000e+00,8.816755831e-03,0.000000000e+00,9.999998699e+00,9.739866372e+00,7.384983758e-02,-1.300661645e+00,-0.000000000e+00,-0.000000000e+00,1.300661635e+00
2.000000000e-06,1.000000000e+01,5.000000000e+00,0.000000000e+00,3.162651590e-03,0.000000000e+00,8.418924315e+02,8.421493407e+02,-6.106465607e-02,-1.299829753e+00,0.000000000e+00,0.000000000e+00,-1.284546153e+00
2.500000000e-06,1.000000000e+01,5.000000000e+00,0.000000000e+00,3.160606963e-03,0.000000000e+00,-7.391298833e+02,-7.393867554e+02,6.737863837e-02,1.299912515e+00,0.000000000e+00,0.000000000e+00,1.284360628e+00
3.000000000e-06,1.000000000e+01,5.000000000e+00,0.000000000e+00,9.536975096e-03,0.000000000e+00,7.391043653e+02,7.388508741e+02,7.290979425e-02,-1.299932541e+00,0.000000000e+00,0.000000000e+00,1.267456383e+00
3.500000000e-06,1.000000000e+01,5.000000000e+00,0.000000000e+00,4.026657274e-03,0.000000000e+00,1.549756941e+03,1.550007300e+03,-5.856298926e-02,-1.299121888e+00,0.000000000e+00,0.000000000e+00,-1.251792931e+00
4.000000000e-06,1.000000000e+01,5.000000000e+00,0.000000000e+00,4.024193840e-03,0.000000000e+00,-1.449612712e+03,-1.449863035e+03,6.660482595e-02,1.299202032e+00,0.000000000e+00,0.000000000e+00,1.251612642e+00
4.500000000e-06,1.000000000e+01,5.000000000e+00,0.000000000e+00,1.023739136e-02,0.000000000e+00,1.449587846e+03,1.449340827e+03,7.199201756e-02,-1.299222057e+00,0.000000000e+00,0.000000000e+00,1.235092524e+00
5.000000000e-06,1.000000000e+01,5.000000000e+00,0.000000000e+00,4.867217455e-03,0.000000000e+00,2.239538767e+03,2.239782741e+03,-5.612626151e-02,-1.298432106e+00,0.000000000e+00,0.000000000e+00,-1.219869579e+00
5.500000000e-06,1.000000000e+01,5.000000000e+00,0.000000000e+00,4.864346603e-03,0.000000000e+00,-2.141946521e+03,-2.142190459e+03,6.584906635e-02,1.298509698e+00,0.000000000e+00,0.000000000e+00,1.219694395e+00
6.000000000e-06,1.000000000e+01,5.000000000e+00,0.000000000e+00,1.091850875e-02,0.000000000e+00,2.141922288e+03,2.141681579e+03,7.109594615e-02,-1.298529723e+00,0.000000000e+00,0.000000000e+00,1.203548748e+00
6.500000000e-06,1.000000000e+01,5.000000000e+00,0.000000000e+00,5.684928509e-03,0.000000000e+00,2.911696128e+03,2.911933879e+03,-5.375282556e-02,-1.297759949e+00,0.000000000e+00,0.000000000e+00,-1.188755081e+00
7.000000000e-06,1.000000000e+01,5.000000000e+00,0.000000000e+00,5.681661337e-03,0.000000000e+00,-2.816591206e+03,-2.816828923e+03,6.511090491e-02,1.297835054e+00,0.000000000e+00,0.000000000e+00,1.188584872e+00
7.500000000e-06,1.000000000e+01,5.000000000e+00,0.000000000e+00,1.158081861e-02,0.000000000e+00,2.816567592e+03,2.816333031e+03,7.022103286e-02,-1.297855077e+00,0.000000000e+00,0.000000000e+00,1.172804285e+00
8.000000000e-06,1.000000000e+01,5.000000000e+00,0.000000000e+00,6.480371704e-03,0.000000000e+00,3.566675636e+03,3.566907322e+03,-5.144107586e-02,-1.297104969e+00,0.000000000e+00,0.000000000e+00,-1.158428951e+00
8.500000000e-06,1.000000000e+01,5.000000000e+00,0.000000000e+00,6.476719028e-03,0.000000000e+00,-3.473995019e+03,-3.474226672e+03,6.438989853e-02,1.297177650e+00,0.000000000e+00,0.000000000e+00,1.158263590e+00
9.000000000e-06,1.000000000e+01,5.000000000e+00,0.000000000e+00,1.222479985e-02,0.000000000e+00,3.473972008e+03,3.473743440e+03,6.936674439e-02,-1.297197673e+00,0.000000000e+00,0.000000000e+00,1.142838891e+00
9.500000000e-06,1.000000000e+01,5.000000000e+00,0.000000000e+00,1.866010782e-02,0.000000000e+00,3.463982419e+03,3.463701049e+03,8.900271933e-02,-1.000256088e+03,0.000000000e+00,0.000000000e+00,1.406852230e+00
1.000000000e-05,1.000000000e+01,5.000000000e+00,0.000000000e+00,2.687665715e-02,0.000000000e+00,-3.444015331e+03,-3.444392195e+03,1.210927161e-01,9.969648946e+02,0.000000000e+00,0.000000000e+00,1.884321179e+00
1.050000000e-05,1.000000000e+01,5.000000000e+00,0.000000000e+00,3.683973550e-02,0.000000000e+00,3.453995373e+03,3.453573917e+03,1.422038255e-01,-1.998960696e+03,0.000000000e+00,0.000000000e+00,2.107281800e+00
1.100000000e-05,1.000000000e+01,5.000000000e+00,0.000000000e+00,4.804972353e-02,0.000000000e+00,3.444015488e+03,3.443543947e+03,1.659349712e-01,-2.996949209e+03,0.000000000e+00,0.000000000e+00,2.357704953e+00
1.150000000e-05,1.000000000e+01,5.000000000e+00,0.000000000e+00,6.097002053e-02,0.000000000e+00,-3.424067278e+03,-3.424631542e+03,2.020358115e-01,2.991770168e+03,0.000000000e+00,0.000000000e+00,2.821315819e+00
1.200000000e-05,1.000000000e+01,5.000000000e+00,0.000000000e+00,7.494308104e-02,0.000000000e+00,3.424011250e+03,3.423454950e+03,2.140180658e-01,-2.991770188e+03,0.000000000e+00,0.000000000e+00,2.781499696e+00
1.250000000e-05,1.000000000e+01,5.000000000e+00,0.000000000e+00,6.281814912e-02,0.000000000e+00,5.202930680e+03,5.203480580e+03,-7.465676137e-02,-2.991768410e+03,0.000000000e+00,0.000000000e+00,-2.749498210e+00
1.300000000e-05,1.000000000e+01,5.000000000e+00,0.000000000e+00,6.278569782e-02,0.000000000e+00,-4.982862130e+03,-4.983411946e+03,2.002396015e-01,2.991768610e+03,0.000000000e+00,0.000000000e+00,2.749078073e+00
1.350000000e-05,1.000000000e+01,5.000000000e+00,0.000000000e+00,7.639888115e-02,0.000000000e+00,4.982807538e+03,4.982265516e+03,2.119045670e-01,-2.991768630e+03,0.000000000e+00,0.000000000e+00,2.710113717e+00
1.400000000e-05,1.000000000e+01,5.000000000e+00,0.000000000e+00,6.458312209e-02,0.000000000e+00,6.716064858e+03,6.716600674e+03,-6.937087770e-02,-2.991766896e+03,0.000000000e+00,0.000000000e+00,-2.679079996e+00
1.450000000e-05,1.000000000e+01,5.000000000e+00,0.000000000e+00,6.454981666e-02,0.000000000e+00,-6.501625783e+03,-6.502161517e+03,1.984833725e-01,2.991767091e+03,0.000000000e+00,0.000000000e+00,2.678671118e+00
1.500000000e-05,1.000000000e+01,5.000000000e+00,0.000000000e+00,7.781224698e-02,0.000000000e+00,6.501572591e+03,6.501044484e+03,2.098391078e-01,-2.991767111e+03,0.000000000e+00,0.000000000e+00,2.640537217e+00
1.550000000e-05,1.000000000e+01,5.000000000e+00,0.000000000e+00,6.629782723e-02,0.000000000e+00,8.190325248e+03,8.190847337e+03,-6.422449726e-02,-2.991765422e+03,0.000000000e+00,0.000000000e+00,-2.610446490e+00
1.600000000e-05,1.000000000e+01,5.000000000e+00,0.000000000e+00,6.626369209e-02,0.000000000e+00,-7.981372983e+03,-7.981894993e+03,1.967661214e-01,2.991765611e+03,0.000000000e+00,0.000000000e+00,2.610048585e+00
1.650000000e-05,1.000000000e+01,5.000000000e+00,0.000000000e+00,7.918426248e-02,0.000000000e+00,7.981321155e+03,7.980806610e+03,2.078204808e-01,-2.991765631e+03,0.000000000e+00,0.000000000e+00,2.572724367e+00
1.700000000e-05,1.000000000e+01,5.000000000e+00,0.000000000e+00,6.796354686e-02,0.000000000e+00,9.626697280e+03,9.627205990e+03,-5.921407765e-02,-2.991763986e+03,0.000000000e+00,0.000000000e+00,-2.543552490e+00
1.750000000e-05,1.000000000e+01,5.000000000e+00,0.000000000e+00,6.792860580e-02,0.000000000e+00,-9.423092774e+03,-9.423601407e+03,1.950868699e-01,2.991764169e+03,0.000000000e+00,0.000000000e+00,2.543165281e+00
1.800000000e-05,1.000000000e+01,5.000000000e+00,0.000000000e+00,8.051598411e-02,0.000000000e+00,9.423042276e+03,9.422540950e+03,2.058475091e-01,-2.991764189e+03,0.000000000e+00,0.000000000e+00,2.506630499e+00
1.850000000e-05,1.000000000e+01,5.000000000e+00,0.000000000e+00,6.958153082e-02,0.000000000e+00,1.102614143e+04,1.102663710e+04,-5.433616621e-02,-2.991762586e+03,0.000000000e+00,0.000000000e+00,-2.478353940e+00
1.900000000e-05,1.000000000e+01,5.000000000e+00,0.000000000e+00,6.954580702e-02,0.000000000e+00,-1.082774915e+04,-1.082824475e+04,1.934446648e-01,2.991762765e+03,0.000000000e+00,0.000000000e+00,2.477977156e+00
1.950000000e-05,1.000000000e+01,5.000000000e+00,0.000000000e+00,8.243081596e-02,0.000000000e+00,1.083772330e+04,1.083718506e+04,2.169920201e-01,-3.994347365e+03,0.000000000e+00,0.000000000e+00,2.691224082e+00
2.000000000e-05,1.000000000e+01,5.000000000e+00,0.000000000e+00,9.651258238e-02,0.000000000e+00,1.082774930e+04,1.082716292e+04,2.431073120e-01,-4.991747677e+03,0.000000000e+00,0.000000000e+00,2.931894593e+00
2.050000000e-05,1.000000000e+01,5.000000000e+00,0.000000000e+00,1.122541563e-01,0.000000000e+00,-1.080781248e+04,-1.080848960e+04,2.815347377e-01,4.985430151e+03,0.000000000e+00,0.000000000e+00,3.385611629e+00
2.100000000e-05,1.000000000e+01,5.000000000e+00,0.000000000e+00,1.296205324e-01,0.000000000e+00,1.081777762e+04,1.081706060e+04,3.088768478e-01,-5.988915520e+03,0.000000000e+00,0.000000000e+00,3.585126308e+00
2.150000000e-05,1.000000000e+01,5.000000000e+00,0.000000000e+00,1.481125395e-01,0.000000000e+00,1.080781262e+04,1.080705022e+04,3.387120384e-01,-6.985415899e+03,0.000000000e+00,0.000000000e+00,3.811989978e+00
2.200000000e-05,1.000000000e+01,5.000000000e+00,0.000000000e+00,1.480400745e-01,0.000000000e+00,-1.111245034e+04,-1.111168806e+04,-4.252796056e-02,6.985415575e+03,0.000000000e+00,0.000000000e+00,-3.811360702e+00
2.250000000e-05,1.000000000e+01,5.000000000e+00,0.000000000e+00,1.290198709e-01,0.000000000e+00,1.111252614e+04,1.111327994e+04,-5.943086685e-02,-6.985415595e+03,0.000000000e+00,0.000000000e+00,-3.769014755e+00
2.300000000e-05,1.000000000e+01,5.000000000e+00,0.000000000e+00,1.453125435e-01,0.000000000e+00,8.701561638e+03,8.700818503e+03,3.310960601e-01,-6.985418006e+03,0.000000000e+00,0.000000000e+00,3.715670332e+00
2.350000000e-05,1.000000000e+01,5.000000000e+00,0.000000000e+00,1.452414397e-01,0.000000000e+00,-8.998500002e+03,-8.997756990e+03,-4.051138302e-02,6.985417689e+03,0.000000000e+00,0.000000000e+00,-3.715056455e+00
2.400000000e-05,1.000000000e+01,5.000000000e+00,0.000000000e+00,1.267012447e-01,0.000000000e+00,8.998573891e+03,8.999308656e+03,-5.699011891e-02,-6.985417709e+03,0.000000000e+00,0.000000000e+00,-3.673827273e+00
2.450000000e-05,1.000000000e+01,5.000000000e+00,0.000000000e+00,1.425818847e-01,0.000000000e+00,6.648496906e+03,6.647772548e+03,3.236713698e-01,-6.985420059e+03,0.000000000e+00,0.000000000e+00,3.621789702e+00
2.500000000e-05,1.000000000e+01,5.000000000e+00,0.000000000e+00,1.425121084e-01,0.000000000e+00,-6.937930884e+03,-6.937206646e+03,-3.854743334e-02,6.985419749e+03,0.000000000e+00,0.000000000e+00,-3.621190834e+00
2.550000000e-05,1.000000000e+01,5.000000000e+00,0.000000000e+00,1.244397681e-01,0.000000000e+00,6.938002907e+03,6.938719117e+03,-5.461273485e-02,-6.985419769e+03,0.000000000e+00,0.000000000e+00,-3.581050060e+00
2.600000000e-05,1.000000000e+01,5.000000000e+00,0.000000000e+00,1.399188096e-01,0.000000000e+00,4.647271693e+03,4.646565636e+03,3.164331255e-01,-6.985422060e+03,0.000000000e+00,0.000000000e+00,3.530286318e+00
2.650000000e-05,1.000000000e+01,5.000000000e+00,0.000000000e+00,1.398503279e-01,0.000000000e+00,-4.929391314e+03,-4.928685373e+03,-3.663477609e-02,6.985421758e+03,0.000000000e+00,0.000000000e+00,-3.529702079e+00
2.700000000e-05,1.000000000e+01,5.000000000e+00,0.000000000e+00,1.222339964e-01,0.000000000e+00,4.929461517e+03,4.930159642e+03,-5.229710737e-02,-6.985421778e+03,0.000000000e+00,0.000000000e+00,-3.490622075e+00
2.750000000e-05,1.000000000e+01,5.000000000e+00,0.000000000e+00,1.373216091e-01,0.000000000e+00,2.696573373e+03,2.695885153e+03,3.093766079e-01,-6.985424011e+03,0.000000000e+00,0.000000000e+00,3.441099976e+00
2.800000000e-05,1.000000000e+01,5.000000000e+00,0.000000000e+00,1.372543901e-01,0.000000000e+00,-2.971563853e+03,-2.970875747e+03,-3.477210966e-02,6.985423716e+03,0.000000000e+00,0.000000000e+00,-3.440529995e+00
2.850000000e-05,1.000000000e+01,5.000000000e+00,0.000000000e+00,1.200825213e-01,0.000000000e+00,2.971632284e+03,2.972312781e+03,-5.004166983e-02,-6.985423736e+03,0.000000000e+00,0.000000000e+00,-3.402483823e+00
2.900000000e-05,1.000000000e+01,5.000000000e+00,0.000000000e+00,1.347886177e-01,0.000000000e+00,7.951225641e+02,7.944517297e+02,3.024972174e-01,-6.985425912e+03,0.000000000e+00,0.000000000e+00,3.354171994e+00
2.950000000e-05,1.000000000e+01,5.000000000e+00,0.000000000e+00,1.526034045e-01,0.000000000e+00,-7.751941108e+02,-7.759542072e+02,3.426275014e-01,6.978271238e+03,0.000000000e+00,0.000000000e+00,3.800481938e+00
3.000000000e-05,1.000000000e+01,5.000000000e+00,0.000000000e+00,1.720051704e-01,0.000000000e+00,7.851551450e+02,7.843566080e+02,3.716394345e-01,-7.982167822e+03,0.000000000e+00,0.000000000e+00,3.992685282e+00
3.050000000e-05,1.000000000e+01,5.000000000e+00,0.000000000e+00,1.924949244e-01,0.000000000e+00,7.751942488e+02,7.743518053e+02,4.031057961e-01,-8.978257441e+03,0.000000000e+00,0.000000000e+00,4.212217434e+00
3.100000000e-05,1.000000000e+01,5.000000000e+00,0.000000000e+00,2.145348935e-01,0.000000000e+00,-7.552828159e+02,-7.562117106e+02,4.467585532e-01,8.969400730e+03,0.000000000e+00,0.000000000e+00,4.644473194e+00
3.150000000e-05,1.000000000e+01,5.000000000e+00,0.000000000e+00,2.380899295e-01,0.000000000e+00,7.652354795e+02,7.642709188e+02,4.792301136e-01,-9.974134368e+03,0.000000000e+00,0.000000000e+00,4.822803683e+00
3.200000000e-05,1.000000000e+01,5.000000000e+00,0.000000000e+00,2.170022621e-01,0.000000000e+00,3.849467762e+03,3.850422169e+03,-2.159947870e-02,-9.974131284e+03,0.000000000e+00,0.000000000e+00,-4.772034817e+00
3.250000000e-05,1.000000000e+01,5.000000000e+00,0.000000000e+00,2.168919278e-01,0.000000000e+00,-3.467301042e+03,-3.468255300e+03,4.554564519e-01,9.974131646e+03,0.000000000e+00,0.000000000e+00,4.771290483e+00
3.300000000e-05,1.000000000e+01,5.000000000e+00,0.000000000e+00,2.404515794e-01,0.000000000e+00,3.467206347e+03,3.466266686e+03,4.753668061e-01,-9.974131666e+03,0.000000000e+00,0.000000000e+00,4.698304533e+00
3.350000000e-05,1.000000000e+01,5.000000000e+00,0.000000000e+00,2.199032237e-01,0.000000000e+00,6.471802983e+03,6.472732827e+03,-1.255756448e-02,-9.974128662e+03,0.000000000e+00,0.000000000e+00,-4.649215764e+00
3.400000000e-05,1.000000000e+01,5.000000000e+00,0.000000000e+00,2.197914883e-01,0.000000000e+00,-6.099455197e+03,-6.100384895e+03,4.522160417e-01,9.974129014e+03,0.000000000e+00,0.000000000e+00,4.648491069e+00
3.450000000e-05,1.000000000e+01,5.000000000e+00,0.000000000e+00,2.427394891e-01,0.000000000e+00,6.099362942e+03,6.098447550e+03,4.715876067e-01,-9.974129034e+03,0.000000000e+00,0.000000000e+00,4.576962352e+00
3.500000000e-05,1.000000000e+01,5.000000000e+00,0.000000000e+00,2.227167778e-01,0.000000000e+00,9.026343310e+03,9.027249213e+03,-3.758745985e-03,-9.974126107e+03,0.000000000e+00,0.000000000e+00,-4.529510476e+00
3.550000000e-05,1.000000000e+01,5.000000000e+00,0.000000000e+00,2.226036838e-01,0.000000000e+00,-8.663565551e+03,-8.664471312e+03,4.490439298e-01,9.974126450e+03,0.000000000e+00,0.000000000e+00,4.528804920e+00
3.600000000e-05,1.000000000e+01,5.000000000e+00,0.000000000e+00,2.449555493e-01,0.000000000e+00,8.663475676e+03,8.662583936e+03,4.678904083e-01,-9.974126470e+03,0.000000000e+00,0.000000000e+00,4.458697181e+00
3.650000000e-05,1.000000000e+01,5.000000000e+00,0.000000000e+00,2.254451612e-01,0.000000000e+00,1.151480801e+04,1.151569057e+04,4.803156827e-03,-9.974123619e+03,0.000000000e+00,0.000000000e+00,-4.412840088e+00
3.700000000e-05,1.000000000e+01,5.000000000e+00,0.000000000e+00,2.253307500e-01,0.000000000e+00,-1.116135767e+04,-1.116224010e+04,4.459384093e-01,9.974123952e+03,0.000000000e+00,0.000000000e+00,4.412153187e+00
3.750000000e-05,1.000000000e+01,5.000000000e+00,0.000000000e+00,2.471016026e-01,0.000000000e+00,1.116127011e+04,1.116040143e+04,4.642731568e-01,-9.974123972e+03,0.000000000e+00,0.000000000e+00,4.343431085e+00
3.800000000e-05,1.000000000e+01,5.000000000e+00,0.000000000e+00,2.280905540e-01,0.000000000e+00,1.393887279e+04,1.393973261e+04,1.313416744e-02,-9.974121195e+03,0.000000000e+00,0.000000000e+00,-4.299127732e+00
3.850000000e-05,1.000000000e+01,5.000000000e+00,0.000000000e+00,2.279748659e-01,0.000000000e+00,-1.359451342e+04,-1.359537311e+04,4.428978165e-01,9.974121519e+03,0.000000000e+00,0.000000000e+00,4.298459013e+00
3.900000000e-05,1.000000000e+01,5.000000000e+00,0.000000000e+00,2.491794451e-01,0.000000000e+00,1.359442812e+04,1.359358190e+04,4.607338503e-01,-9.974121539e+03,0.000000000e+00,0.000000000e+00,4.231088104e+00
3.950000000e-05,1.000000000e+01,5.000000000e+00,0.000000000e+00,2.708050954e-01,0.000000000e+00,1.358446964e+04,1.358358089e+04,4.929915955e-01,-1.096996974e+04,0.000000000e+00,0.000000000e+00,4.443730001e+00
4.000000000e-05,1.000000000e+01,5.000000000e+00,0.000000000e+00,2.939459276e-01,0.000000000e+00,-1.356456277e+04,-1.356553658e+04,5.373998260e-01,1.096065692e+04,0.000000000e+00,0.000000000e+00,4.869077969e+00
4.050000000e-05,1.000000000e+01,5.000000000e+00,0.000000000e+00,3.185669718e-01,0.000000000e+00,1.357451322e+04,1.357350510e+04,5.705965221e-01,-1.196561175e+04,0.000000000e+00,0.000000000e+00,5.040591007e+00
4.100000000e-05,1.000000000e+01,5.000000000e+00,0.000000000e+00,3.441698277e-01,0.000000000e+00,1.356456289e+04,1.356351501e+04,6.061401202e-01,-1.296064441e+04,0.000000000e+00,0.000000000e+00,5.239405850e+00
4.150000000e-05,1.000000000e+01,5.000000000e+00,0.000000000e+00,3.712163340e-01,0.000000000e+00,-1.354467180e+04,-1.354580194e+04,6.537530977e-01,1.294975425e+04,0.000000000e+00,0.000000000e+00,5.650735273e+00
4.200000000e-05,1.000000000e+01,5.000000000e+00,0.000000000e+00,3.990471511e-01,0.000000000e+00,1.354455970e+04,1.354344798e+04,6.769780458e-01,-1.294975427e+04,0.000000000e+00,0.000000000e+00,5.558617896e+00
4.250000000e-05,1.000000000e+01,5.000000000e+00,0.000000000e+00,3.746679718e-01,0.000000000e+00,1.709910463e+04,1.710020574e+04,9.939163350e-02,-1.294975072e+04,0.000000000e+00,0.000000000e+00,-5.505526767e+00
4.300000000e-05,1.000000000e+01,5.000000000e+00,0.000000000e+00,3.744785294e-01,0.000000000e+00,-1.665794805e+04,-1.665904899e+04,6.497117521e-01,1.294975114e+04,0.000000000e+00,0.000000000e+00,5.504664453e+00
4.350000000e-05,1.000000000e+01,5.000000000e+00,0.000000000e+00,4.015818998e-01,0.000000000e+00,1.665783886e+04,1.665675601e+04,6.722963871e-01,-1.294975116e+04,0.000000000e+00,0.000000000e+00,5.414289745e+00
4.400000000e-05,1.000000000e+01,5.000000000e+00,0.000000000e+00,3.778280493e-01,0.000000000e+00,2.012006497e+04,2.012113760e+04,1.096711756e-01,-1.294974770e+04,0.000000000e+00,0.000000000e+00,-5.363137473e+00
4.450000000e-05,1.000000000e+01,5.000000000e+00,0.000000000e+00,3.776370842e-01,0.000000000e+00,-1.969029230e+04,-1.969136476e+04,6.457519806e-01,1.294974811e+04,0.000000000e+00,0.000000000e+00,5.362297928e+00
4.500000000e-05,1.000000000e+01,5.000000000e+00,0.000000000e+00,4.040314687e-01,0.000000000e+00,1.969018594e+04,1.968913122e+04,6.677126054e-01,-1.294974813e+04,0.000000000e+00,0.000000000e+00,5.273622735e+00
4.550000000e-05,1.000000000e+01,5.000000000e+00,0.000000000e+00,3.808870967e-01,0.000000000e+00,2.306243510e+04,2.306347998e+04,1.196691353e-01,-1.294974476e+04,0.000000000e+00,0.000000000e+00,-5.224359229e+00
4.600000000e-05,1.000000000e+01,5.000000000e+00,0.000000000e+00,3.806946579e-01,0.000000000e+00,-2.264375768e+04,-2.264480239e+04,6.418717516e-01,1.294974515e+04,0.000000000e+00,0.000000000e+00,5.223541874e+00
4.650000000e-05,1.000000000e+01,5.000000000e+00,0.000000000e+00,4.063980497e-01,0.000000000e+00,2.264365408e+04,2.264262678e+04,6.632242564e-01,-1.294974517e+04,0.000000000e+00,0.000000000e+00,5.136524133e+00
