time,V(ac),V(out),I(Vac),I(L1)
0.000000000e+00,0.000000000e+00,0.000000000e+00,-0.000000000e+00,0.000000000e+00
1.000000000e-06,1.570537954e-01,3.924284635e-06,-7.852493555e-05,7.852493555e-05
2.000000000e-06,3.139525976e-01,2.353752057e-05,-3.140144012e-04,3.140144012e-04
3.000000000e-06,4.705415666e-01,7.449984517e-05,-7.062124646e-04,7.062124646e-04
4.000000000e-06,6.266661678e-01,1.724216512e-04,-1.254692871e-03,1.254692871e-03
5.000000000e-06,7.821723252e-01,3.328466348e-04,-1.958859483e-03,1.958859483e-03
6.000000000e-06,9.369065729e-01,5.712349128e-04,-2.817946892e-03,2.817946892e-03
7.000000000e-06,1.090716207e+00,9.029462263e-04,-3.831021191e-03,3.831021191e-03
8.000000000e-06,1.243449436e+00,1.343223248e-03,-4.996980928e-03,4.996980928e-03
9.000000000e-06,1.394955530e+00,1.907175005e-03,-6.314558212e-03,6.314558212e-03
1.000000000e-05,1.545084972e+00,2.609760448e-03,-7.782319995e-03,7.782319995e-03
1.100000000e-05,1.693689601e+00,3.465772157e-03,-9.398669515e-03,9.398669515e-03
1.200000000e-05,1.840622763e+00,4.489820232e-03,-1.116184790e-02,1.116184790e-02
1.300000000e-05,1.985739453e+00,5.696316356e-03,-1.306993594e-02,1.306993594e-02
1.400000000e-05,2.128896458e+00,7.099458066e-03,-1.512085601e-02,1.512085601e-02
1.500000000e-05,2.269952499e+00,8.713213238e-03,-1.731237415e-02,1.731237415e-02
1.600000000e-05,2.408768371e+00,1.055130480e-02,-1.964210233e-02,1.964210233e-02
1.700000000e-05,2.545207079e+00,1.262719571e-02,-2.210750080e-02,2.210750080e-02
1.800000000e-05,2.679133975e+00,1.495407415e-02,-2.470588069e-02,2.470588069e-02
1.900000000e-05,2.810416889e+00,1.754483906e-02,-2.743440667e-02,2.743440667e-02
2.000000000e-05,2.938926261e+00,2.041208592e-02,-3.029009978e-02,3.029009978e-02
2.100000000e-05,3.064535268e+00,2.356809284e-02,-3.326984046e-02,3.326984046e-02
2.200000000e-05,3.187119949e+00,2.702480700e-02,-3.637037162e-02,3.637037162e-02
2.300000000e-05,3.306559327e+00,3.079383136e-02,-3.958830194e-02,3.958830194e-02
2.400000000e-05,3.422735530e+00,3.488641179e-02,-4.292010924e-02,4.292010924e-02
2.500000000e-05,3.535533906e+00,3.931342454e-02,-4.636214404e-02,4.636214404e-02
2.600000000e-05,3.644843137e+00,4.408536401e-02,-4.991063317e-02,4.991063317e-02
2.700000000e-05,3.750555348e+00,4.921233099e-02,-5.356168356e-02,5.356168356e-02
2.800000000e-05,3.852566214e+00,5.470402131e-02,-5.731128617e-02,5.731128617e-02
2.900000000e-05,3.950775062e+00,6.056971474e-02,-6.115531994e-02,6.115531994e-02
3.000000000e-05,4.045084972e+00,6.681826455e-02,-6.508955597e-02,6.508955597e-02
3.100000000e-05,4.135402871e+00,7.345808726e-02,-6.910966171e-02,6.910966171e-02
3.200000000e-05,4.221639628e+00,8.049715299e-02,-7.321120534e-02,7.321120534e-02
3.300000000e-05,4.303710135e+00,8.794297620e-02,-7.738966016e-02,7.738966016e-02
3.400000000e-05,4.381533400e+00,9.580260687e-02,-8.164040913e-02,8.164040913e-02
3.500000000e-05,4.455032621e+00,1.040826222e-01,-8.595874953e-02,8.595874953e-02
3.600000000e-05,4.524135262e+00,1.127891187e-01,-9.033989760e-02,9.033989760e-02
3.700000000e-05,4.588773128e+00,1.219277048e-01,-9.477899338e-02,9.477899338e-02
3.800000000e-05,4.648882429e+00,1.315034942e-01,-9.927110556e-02,9.927110556e-02
3.900000000e-05,4.704403845e+00,1.415210990e-01,-1.038112364e-01,1.038112364e-01
4.000000000e-05,4.755282581e+00,1.519846243e-01,-1.083943268e-01,1.083943268e-01
4.100000000e-05,4.801468428e+00,1.628976625e-01,-1.130152611e-01,1.130152611e-01
4.200000000e-05,4.842915806e+00,1.742632887e-01,-1.176688728e-01,1.176688728e-01
4.300000000e-05,4.879583810e+00,1.860840561e-01,-1.223499489e-01,1.223499489e-01
4.400000000e-05,4.911436254e+00,1.983619924e-01,-1.270532359e-01,1.270532359e-01
4.500000000e-05,4.938441703e+00,2.110985961e-01,-1.317734446e-01,1.317734446e-01
4.600000000e-05,4.960573507e+00,2.242948344e-01,-1.365052555e-01,1.365052555e-01
4.700000000e-05,4.977809823e+00,2.379511404e-01,-1.412433242e-01,1.412433242e-01
4.800000000e-05,4.990133642e+00,2.520674116e-01,-1.459822866e-01,1.459822866e-01
4.900000000e-05,4.997532802e+00,2.666430090e-01,-1.507167646e-01,1.507167646e-01
5.000000000e-05,5.000000000e+00,2.816767559e-01,-1.554413711e-01,1.554413711e-01
5.100000000e-05,4.997532802e+00,2.971669384e-01,-1.601507157e-01,1.601507157e-01
5.200000000e-05,4.990133642e+00,3.131113055e-01,-1.648394098e-01,1.648394098e-01
5.300000000e-05,4.977809823e+00,3.295070705e-01,-1.695020723e-01,1.695020723e-01
5.400000000e-05,4.960573507e+00,3.463509118e-01,-1.741333350e-01,1.741333350e-01
5.500000000e-05,4.938441703e+00,3.636389760e-01,-1.787278477e-01,1.787278477e-01
5.600000000e-05,4.911436254e+00,3.813668797e-01,-1.832802837e-01,1.832802837e-01
5.700000000e-05,4.879583810e+00,3.995297128e-01,-1.877853455e-01,1.877853455e-01
5.800000000e-05,4.842915806e+00,4.181220427e-01,-1.922377694e-01,1.922377694e-01
5.900000000e-05,4.801468428e+00,4.371379178e-01,-1.966323315e-01,1.966323315e-01
6.000000000e-05,4.755282581e+00,4.565708726e-01,-2.009638526e-01,2.009638526e-01
6.100000000e-05,4.704403845e+00,4.764139330e-01,-2.052272034e-01,2.052272034e-01
6.200000000e-05,4.648882429e+00,4.966596219e-01,-2.094173098e-01,2.094173098e-01
6.300000000e-05,4.588773128e+00,5.172999654e-01,-2.135291578e-01,2.135291578e-01
6.400000000e-05,4.524135262e+00,5.383265000e-01,-2.175577988e-01,2.175577988e-01
6.500000000e-05,4.455032621e+00,5.597302793e-01,-2.214983543e-01,2.214983543e-01
6.600000000e-05,4.381533400e+00,5.815018820e-01,-2.253460212e-01,2.253460212e-01
6.700000000e-05,4.303710135e+00,6.036314202e-01,-2.290960764e-01,2.290960764e-01
6.800000000e-05,4.221639628e+00,6.261085481e-01,-2.327438812e-01,2.327438812e-01
6.900000000e-05,4.135402871e+00,6.489224710e-01,-2.362848870e-01,2.362848870e-01
7.000000000e-05,4.045084972e+00,6.720619551e-01,-2.397146387e-01,2.397146387e-01
7.100000000e-05,3.950775062e+00,6.955153374e-01,-2.430287801e-01,2.430287801e-01
7.200000000e-05,3.852566214e+00,7.192705363e-01,-2.462230578e-01,2.462230578e-01
7.300000000e-05,3.750555348e+00,7.433150627e-01,-2.492933257e-01,2.492933257e-01
7.400000000e-05,3.644843137e+00,7.676360309e-01,-2.522355494e-01,2.522355494e-01
7.500000000e-05,3.535533906e+00,7.922201708e-01,-2.550458099e-01,2.550458099e-01
7.600000000e-05,3.422735530e+00,8.170538397e-01,-2.577203076e-01,2.577203076e-01
7.700000000e-05,3.306559327e+00,8.421230349e-01,-2.602553666e-01,2.602553666e-01
7.800000000e-05,3.187119949e+00,8.674134069e-01,-2.626474380e-01,2.626474380e-01
7.900000000e-05,3.064535268e+00,8.929102722e-01,-2.648931038e-01,2.648931038e-01
8.000000000e-05,2.938926261e+00,9.185986269e-01,-2.669890801e-01,2.669890801e-01
8.100000000e-05,2.810416889e+00,9.444631611e-01,-2.689322208e-01,2.689322208e-01
8.200000000e-05,2.679133975e+00,9.704882724e-01,-2.707195205e-01,2.707195205e-01
8.300000000e-05,2.545207079e+00,9.966580812e-01,-2.723481178e-01,2.723481178e-01
8.400000000e-05,2.408768371e+00,1.022956445e+00,-2.738152983e-01,2.738152983e-01
8.500000000e-05,2.269952499e+00,1.049366973e+00,-2.751184970e-01,2.751184970e-01
8.600000000e-05,2.128896458e+00,1.075873043e+00,-2.762553015e-01,2.762553015e-01
8.700000000e-05,1.985739453e+00,1.102457815e+00,-2.772234540e-01,2.772234540e-01
8.800000000e-05,1.840622763e+00,1.129104249e+00,-2.780208541e-01,2.780208541e-01
8.900000000e-05,1.693689601e+00,1.155795120e+00,-2.786455606e-01,2.786455606e-01
9.000000000e-05,1.545084972e+00,1.182513034e+00,-2.790957938e-01,2.790957938e-01
9.100000000e-05,1.394955530e+00,1.209240444e+00,-2.793699373e-01,2.793699373e-01
9.200000000e-05,1.243449436e+00,1.235959668e+00,-2.794665397e-01,2.794665397e-01
9.300000000e-05,1.090716207e+00,1.262652904e+00,-2.793843163e-01,2.793843163e-01
9.400000000e-05,9.369065729e-01,1.289302250e+00,-2.791221501e-01,2.791221501e-01
9.500000000e-05,7.821723252e-01,1.315889716e+00,-2.786790935e-01,2.786790935e-01
9.600000000e-05,6.266661678e-01,1.342397246e+00,-2.780543693e-01,2.780543693e-01
9.700000000e-05,4.705415666e-01,1.368806731e+00,-2.772473712e-01,2.772473712e-01
9.800000000e-05,3.139525976e-01,1.395100029e+00,-2.762576649e-01,2.762576649e-01
9.900000000e-05,1.570537954e-01,1.421258982e+00,-2.750849886e-01,2.750849886e-01
1.000000000e-04,3.208137288e-14,1.447265432e+00,-2.737292533e-01,2.737292533e-01
1.010000000e-04,-1.570537954e-01,1.473101239e+00,-2.721905430e-01,2.721905430e-01
1.020000000e-04,-3.139525976e-01,1.498748297e+00,-2.704691151e-01,2.704691151e-01
1.030000000e-04,-4.705415666e-01,1.524188554e+00,-2.685653996e-01,2.685653996e-01
1.040000000e-04,-6.266661678e-01,1.549404028e+00,-2.664799994e-01,2.664799994e-01
1.050000000e-04,-7.821723252e-01,1.574376822e+00,-2.642136897e-01,2.642136897e-01
1.060000000e-04,-9.369065729e-01,1.599089144e+00,-2.617674173e-01,2.617674173e-01
1.070000000e-04,-1.090716207e+00,1.623523324e+00,-2.591422997e-01,2.591422997e-01
1.080000000e-04,-1.243449436e+00,1.647661828e+00,-2.563396243e-01,2.563396243e-01
1.090000000e-04,-1.394955530e+00,1.671487277e+00,-2.533608472e-01,2.533608472e-01
1.100000000e-04,-1.545084972e+00,1.694982464e+00,-2.502075921e-01,2.502075921e-01
1.110000000e-04,-1.693689601e+00,1.718130369e+00,-2.468816484e-01,2.468816484e-01
1.120000000e-04,-1.840622763e+00,1.740914178e+00,-2.433849700e-01,2.433849700e-01
1.130000000e-04,-1.985739453e+00,1.763317294e+00,-2.397196731e-01,2.397196731e-01
1.140000000e-04,-2.128896458e+00,1.785323359e+00,-2.358880348e-01,2.358880348e-01
1.150000000e-04,-2.269952499e+00,1.806916266e+00,-2.318924905e-01,2.318924905e-01
1.160000000e-04,-2.408768371e+00,1.828080174e+00,-2.277356319e-01,2.277356319e-01
1.170000000e-04,-2.545207079e+00,1.848799526e+00,-2.234202043e-01,2.234202043e-01
1.180000000e-04,-2.679133975e+00,1.869059062e+00,-2.189491045e-01,2.189491045e-01
1.190000000e-04,-2.810416889e+00,1.888843835e+00,-2.143253776e-01,2.143253776e-01
1.200000000e-04,-2.938926261e+00,1.908139223e+00,-2.095522145e-01,2.095522145e-01
1.210000000e-04,-3.064535268e+00,1.926930946e+00,-2.046329487e-01,2.046329487e-01
1.220000000e-04,-3.187119949e+00,1.945205078e+00,-1.995710530e-01,1.995710530e-01
1.230000000e-04,-3.306559327e+00,1.962948061e+00,-1.943701368e-01,1.943701368e-01
1.240000000e-04,-3.422735530e+00,1.980146717e+00,-1.890339420e-01,1.890339420e-01
1.250000000e-04,-3.535533906e+00,1.996788264e+00,-1.835663398e-01,1.835663398e-01
1.260000000e-04,-3.644843137e+00,2.012860323e+00,-1.779713270e-01,1.779713270e-01
1.270000000e-04,-3.750555348e+00,2.028350935e+00,-1.722530221e-01,1.722530221e-01
1.280000000e-04,-3.852566214e+00,2.043248569e+00,-1.664156616e-01,1.664156616e-01
1.290000000e-04,-3.950775062e+00,2.057542137e+00,-1.604635956e-01,1.604635956e-01
1.300000000e-04,-4.045084972e+00,2.071220999e+00,-1.544012840e-01,1.544012840e-01
1.310000000e-04,-4.135402871e+00,2.084274980e+00,-1.482332921e-01,1.482332921e-01
1.320000000e-04,-4.221639628e+00,2.096694374e+00,-1.419642862e-01,1.419642862e-01
1.330000000e-04,-4.303710135e+00,2.108469958e+00,-1.355990291e-01,1.355990291e-01
1.340000000e-04,-4.381533400e+00,2.119592996e+00,-1.291423759e-01,1.291423759e-01
1.350000000e-04,-4.455032621e+00,2.130055255e+00,-1.225992687e-01,1.225992687e-01
1.360000000e-04,-4.524135262e+00,2.139849003e+00,-1.159747327e-01,1.159747327e-01
1.370000000e-04,-4.588773128e+00,2.148967025e+00,-1.092738705e-01,1.092738705e-01
1.380000000e-04,-4.648882429e+00,2.157402626e+00,-1.025018579e-01,1.025018579e-01
1.390000000e-04,-4.704403845e+00,2.165149640e+00,-9.566393860e-02,9.566393860e-02
1.400000000e-04,-4.755282581e+00,2.172202432e+00,-8.876541935e-02,8.876541935e-02
1.410000000e-04,-4.801468428e+00,2.178555907e+00,-8.181166467e-02,8.181166467e-02
1.420000000e-04,-4.842915806e+00,2.184205514e+00,-7.480809185e-02,7.480809185e-02
1.430000000e-04,-4.879583810e+00,2.189147250e+00,-6.776016566e-02,6.776016566e-02
1.440000000e-04,-4.911436254e+00,2.193377666e+00,-6.067339317e-02,6.067339317e-02
1.450000000e-04,-4.938441703e+00,2.196893866e+00,-5.355331842e-02,5.355331842e-02
1.460000000e-04,-4.960573507e+00,2.199693514e+00,-4.640551713e-02,4.640551713e-02
1.470000000e-04,-4.977809823e+00,2.201774835e+00,-3.923559129e-02,3.923559129e-02
1.480000000e-04,-4.990133642e+00,2.203136617e+00,-3.204916383e-02,3.204916383e-02
1.490000000e-04,-4.997532802e+00,2.203778212e+00,-2.485187319e-02,2.485187319e-02
1.500000000e-04,-5.000000000e+00,2.203699535e+00,-1.764936792e-02,1.764936792e-02
1.510000000e-04,-4.997532802e+00,2.202901068e+00,-1.044730122e-02,1.044730122e-02
1.520000000e-04,-4.990133642e+00,2.201383857e+00,-3.251325532e-03,3.251325532e-03
1.530000000e-04,-4.977809823e+00,2.199149511e+00,3.932912884e-03,-3.932912884e-03
1.540000000e-04,-4.960573507e+00,2.196200201e+00,1.109977940e-02,-1.109977940e-02
1.550000000e-04,-4.938441703e+00,2.192538660e+00,1.824365644e-02,-1.824365644e-02
1.560000000e-04,-4.911436254e+00,2.188168176e+00,2.535894884e-02,-2.535894884e-02
1.570000000e-04,-4.879583810e+00,2.183092594e+00,3.244008925e-02,-3.244008925e-02
1.580000000e-04,-4.842915806e+00,2.177316308e+00,3.948154351e-02,-3.948154351e-02
1.590000000e-04,-4.801468428e+00,2.170844260e+00,4.647781591e-02,-4.647781591e-02
1.600000000e-04,-4.755282581e+00,2.163681933e+00,5.342345451e-02,-5.342345451e-02
1.610000000e-04,-4.704403845e+00,2.155835349e+00,6.031305637e-02,-6.031305637e-02
1.620000000e-04,-4.648882429e+00,2.147311059e+00,6.714127271e-02,-6.714127271e-02
1.630000000e-04,-4.588773128e+00,2.138116141e+00,7.390281409e-02,-7.390281409e-02
1.640000000e-04,-4.524135262e+00,2.128258191e+00,8.059245545e-02,-8.059245545e-02
1.650000000e-04,-4.455032621e+00,2.117745314e+00,8.720504114e-02,-8.720504114e-02
1.660000000e-04,-4.381533400e+00,2.106586122e+00,9.373548987e-02,-9.373548987e-02
1.670000000e-04,-4.303710135e+00,2.094789719e+00,1.001787996e-01,-1.001787996e-01
1.680000000e-04,-4.221639628e+00,2.082365699e+00,1.065300522e-01,-1.065300522e-01
1.690000000e-04,-4.135402871e+00,2.069324131e+00,1.127844183e-01,-1.127844183e-01
1.700000000e-04,-4.045084972e+00,2.055675552e+00,1.189371621e-01,-1.189371621e-01
1.710000000e-04,-3.950775062e+00,2.041430958e+00,1.249836454e-01,-1.249836454e-01
1.720000000e-04,-3.852566214e+00,2.026601793e+00,1.309193324e-01,-1.309193324e-01
1.730000000e-04,-3.750555348e+00,2.011199936e+00,1.367397940e-01,-1.367397940e-01
1.740000000e-04,-3.644843137e+00,1.995237692e+00,1.424407121e-01,-1.424407121e-01
1.750000000e-04,-3.535533906e+00,1.978727779e+00,1.480178833e-01,-1.480178833e-01
1.760000000e-04,-3.422735530e+00,1.961683318e+00,1.534672236e-01,-1.534672236e-01
1.770000000e-04,-3.306559327e+00,1.944117818e+00,1.587847716e-01,-1.587847716e-01
1.780000000e-04,-3.187119949e+00,1.926045163e+00,1.639666927e-01,-1.639666927e-01
1.790000000e-04,-3.064535268e+00,1.907479602e+00,1.690092827e-01,-1.690092827e-01
1.800000000e-04,-2.938926261e+00,1.888435732e+00,1.739089711e-01,-1.739089711e-01
1.810000000e-04,-2.810416889e+00,1.868928485e+00,1.786623248e-01,-1.786623248e-01
1.820000000e-04,-2.679133975e+00,1.848973115e+00,1.832660511e-01,-1.832660511e-01
1.830000000e-04,-2.545207079e+00,1.828585183e+00,1.877170007e-01,-1.877170007e-01
1.840000000e-04,-2.408768371e+00,1.807780542e+00,1.920121713e-01,-1.920121713e-01
1.850000000e-04,-2.269952499e+00,1.786575320e+00,1.961487097e-01,-1.961487097e-01
1.860000000e-04,-2.128896458e+00,1.764985908e+00,2.001239148e-01,-2.001239148e-01
1.870000000e-04,-1.985739453e+00,1.743028943e+00,2.039352402e-01,-2.039352402e-01
1.880000000e-04,-1.840622763e+00,1.720721291e+00,2.075802964e-01,-2.075802964e-01
1.890000000e-04,-1.693689601e+00,1.698080033e+00,2.110568532e-01,-2.110568532e-01
1.900000000e-04,-1.545084972e+00,1.675122447e+00,2.143628418e-01,-2.143628418e-01
1.910000000e-04,-1.394955530e+00,1.651865993e+00,2.174963562e-01,-2.174963562e-01
1.920000000e-04,-1.243449436e+00,1.628328295e+00,2.204556558e-01,-2.204556558e-01
1.930000000e-04,-1.090716207e+00,1.604527126e+00,2.232391664e-01,-2.232391664e-01
1.940000000e-04,-9.369065729e-01,1.580480390e+00,2.258454815e-01,-2.258454815e-01
1.950000000e-04,-7.821723252e-01,1.556206105e+00,2.282733642e-01,-2.282733642e-01
1.960000000e-04,-6.266661678e-01,1.531722385e+00,2.305217477e-01,-2.305217477e-01
1.970000000e-04,-4.705415666e-01,1.507047426e+00,2.325897365e-01,-2.325897365e-01
1.980000000e-04,-3.139525976e-01,1.482199485e+00,2.344766070e-01,-2.344766070e-01
1.990000000e-04,-1.570537954e-01,1.457196866e+00,2.361818084e-01,-2.361818084e-01
2.000000000e-04,-7.043608352e-14,1.432057900e+00,2.377049627e-01,-2.377049627e-01
2.010000000e-04,1.570537954e-01,1.406800929e+00,2.390458652e-01,-2.390458652e-01
2.020000000e-04,3.139525976e-01,1.381444289e+00,2.402044846e-01,-2.402044846e-01
2.030000000e-04,4.705415666e-01,1.356006291e+00,2.411809628e-01,-2.411809628e-01
2.040000000e-04,6.266661678e-01,1.330505207e+00,2.419756147e-01,-2.419756147e-01
2.050000000e-04,7.821723252e-01,1.304959248e+00,2.425889277e-01,-2.425889277e-01
2.060000000e-04,9.369065729e-01,1.279386550e+00,2.430215611e-01,-2.430215611e-01
2.070000000e-04,1.090716207e+00,1.253805159e+00,2.432743456e-01,-2.432743456e-01
2.080000000e-04,1.243449436e+00,1.228233009e+00,2.433482819e-01,-2.433482819e-01
2.090000000e-04,1.394955530e+00,1.202687907e+00,2.432445398e-01,-2.432445398e-01
2.100000000e-04,1.545084972e+00,1.177187519e+00,2.429644573e-01,-2.429644573e-01
2.110000000e-04,1.693689601e+00,1.151749351e+00,2.425095384e-01,-2.425095384e-01
2.120000000e-04,1.840622763e+00,1.126390732e+00,2.418814523e-01,-2.418814523e-01
2.130000000e-04,1.985739453e+00,1.101128798e+00,2.410820310e-01,-2.410820310e-01
2.140000000e-04,2.128896458e+00,1.075980478e+00,2.401132676e-01,-2.401132676e-01
2.150000000e-04,2.269952499e+00,1.050962478e+00,2.389773146e-01,-2.389773146e-01
2.160000000e-04,2.408768371e+00,1.026091261e+00,2.376764811e-01,-2.376764811e-01
2.170000000e-04,2.545207079e+00,1.001383038e+00,2.362132305e-01,-2.362132305e-01
2.180000000e-04,2.679133975e+00,9.768537493e-01,2.345901784e-01,-2.345901784e-01
2.190000000e-04,2.810416889e+00,9.525190495e-01,2.328100893e-01,-2.328100893e-01
2.200000000e-04,2.938926261e+00,9.283942947e-01,2.308758744e-01,-2.308758744e-01
2.210000000e-04,3.064535268e+00,9.044945271e-01,2.287905881e-01,-2.287905881e-01
2.220000000e-04,3.187119949e+00,8.808344620e-01,2.265574250e-01,-2.265574250e-01
2.230000000e-04,3.306559327e+00,8.574284734e-01,2.241797168e-01,-2.241797168e-01
2.240000000e-04,3.422735530e+00,8.342905816e-01,2.216609289e-01,-2.216609289e-01
2.250000000e-04,3.535533906e+00,8.114344398e-01,2.190046567e-01,-2.190046567e-01
2.260000000e-04,3.644843137e+00,7.888733220e-01,2.162146220e-01,-2.162146220e-01
2.270000000e-04,3.750555348e+00,7.666201107e-01,2.132946695e-01,-2.132946695e-01
2.280000000e-04,3.852566214e+00,7.446872854e-01,2.102487624e-01,-2.102487624e-01
2.290000000e-04,3.950775062e+00,7.230869113e-01,2.070809789e-01,-2.070809789e-01
2.300000000e-04,4.045084972e+00,7.018306282e-01,2.037955076e-01,-2.037955076e-01
2.310000000e-04,4.135402871e+00,6.809296405e-01,2.003966439e-01,-2.003966439e-01
2.320000000e-04,4.221639628e+00,6.603947069e-01,1.968887848e-01,-1.968887848e-01
2.330000000e-04,4.303710135e+00,6.402361309e-01,1.932764253e-01,-1.932764253e-01
2.340000000e-04,4.381533400e+00,6.204637520e-01,1.895641535e-01,-1.895641535e-01
2.350000000e-04,4.455032621e+00,6.010869367e-01,1.857566458e-01,-1.857566458e-01
2.360000000e-04,4.524135262e+00,5.821145706e-01,1.818586626e-01,-1.818586626e-01
2.370000000e-04,4.588773128e+00,5.635550505e-01,1.778750433e-01,-1.778750433e-01
2.380000000e-04,4.648882429e+00,5.454162776e-01,1.738107011e-01,-1.738107011e-01
2.390000000e-04,4.704403845e+00,5.277056506e-01,1.696706190e-01,-1.696706190e-01
2.400000000e-04,4.755282581e+00,5.104300596e-01,1.654598436e-01,-1.654598436e-01
2.410000000e-04,4.801468428e+00,4.935958804e-01,1.611834811e-01,-1.611834811e-01
2.420000000e-04,4.842915806e+00,4.772089694e-01,1.568466914e-01,-1.568466914e-01
2.430000000e-04,4.879583810e+00,4.612746588e-01,1.524546834e-01,-1.524546834e-01
2.440000000e-04,4.911436254e+00,4.457977530e-01,1.480127096e-01,-1.480127096e-01
