time,V(in),V(out),I(V1)
0.000000000e+00,5.000000000e+00,0.000000000e+00,0.000000000e+00
1.000000000e-06,5.000000000e+00,2.498750625e-03,-4.997501249e-03
2.000000000e-06,5.000000000e+00,7.493754372e-03,-4.992506246e-03
3.000000000e-06,5.000000000e+00,1.248376561e-02,-4.987516234e-03
4.000000000e-06,5.000000000e+00,1.746878933e-02,-4.982531211e-03
5.000000000e-06,5.000000000e+00,2.244883052e-02,-4.977551169e-03
6.000000000e-06,5.000000000e+00,2.742389416e-02,-4.972576106e-03
7.000000000e-06,5.000000000e+00,3.239398522e-02,-4.967606015e-03
8.000000000e-06,5.000000000e+00,3.735910868e-02,-4.962640891e-03
9.000000000e-06,5.000000000e+00,4.231926949e-02,-4.957680731e-03
1.000000000e-05,5.000000000e+00,4.727447262e-02,-4.952725527e-03
1.100000000e-05,5.000000000e+00,5.222472302e-02,-4.947775277e-03
1.200000000e-05,5.000000000e+00,5.717002564e-02,-4.942829974e-03
1.300000000e-05,5.000000000e+00,6.211038544e-02,-4.937889615e-03
1.400000000e-05,5.000000000e+00,6.704580734e-02,-4.932954193e-03
1.500000000e-05,5.000000000e+00,7.197629629e-02,-4.928023704e-03
1.600000000e-05,5.000000000e+00,7.690185721e-02,-4.923098143e-03
1.700000000e-05,5.000000000e+00,8.182249504e-02,-4.918177505e-03
1.800000000e-05,5.000000000e+00,8.673821468e-02,-4.913261785e-03
1.900000000e-05,5.000000000e+00,9.164902106e-02,-4.908350979e-03
2.000000000e-05,5.000000000e+00,9.655491909e-02,-4.903445081e-03
2.100000000e-05,5.000000000e+00,1.014559137e-01,-4.898544086e-03
2.200000000e-05,5.000000000e+00,1.063520097e-01,-4.893647990e-03
2.300000000e-05,5.000000000e+00,1.112432121e-01,-4.888756788e-03
2.400000000e-05,5.000000000e+00,1.161295257e-01,-4.883870474e-03
2.500000000e-05,5.000000000e+00,1.210109555e-01,-4.878989045e-03
2.600000000e-05,5.000000000e+00,1.258875063e-01,-4.874112494e-03
2.700000000e-05,5.000000000e+00,1.307591829e-01,-4.869240817e-03
2.800000000e-05,5.000000000e+00,1.356259903e-01,-4.864374010e-03
2.900000000e-05,5.000000000e+00,1.404879334e-01,-4.859512067e-03
3.000000000e-05,5.000000000e+00,1.453450169e-01,-4.854654983e-03
3.100000000e-05,5.000000000e+00,1.501972458e-01,-4.849802754e-03
3.200000000e-05,5.000000000e+00,1.550446248e-01,-4.844955375e-03
3.300000000e-05,5.000000000e+00,1.598871589e-01,-4.840112841e-03
3.400000000e-05,5.000000000e+00,1.647248529e-01,-4.835275147e-03
3.500000000e-05,5.000000000e+00,1.695577116e-01,-4.830442288e-03
3.600000000e-05,5.000000000e+00,1.743857399e-01,-4.825614260e-03
3.700000000e-05,5.000000000e+00,1.792089426e-01,-4.820791057e-03
3.800000000e-05,5.000000000e+00,1.840273244e-01,-4.815972676e-03
3.900000000e-05,5.000000000e+00,1.888408903e-01,-4.811159110e-03
4.000000000e-05,5.000000000e+00,1.936496451e-01,-4.806350355e-03
4.100000000e-05,5.000000000e+00,1.984535935e-01,-4.801546407e-03
4.200000000e-05,5.000000000e+00,2.032527403e-01,-4.796747260e-03
4.300000000e-05,5.000000000e+00,2.080470904e-01,-4.791952910e-03
4.400000000e-05,5.000000000e+00,2.128366485e-01,-4.787163351e-03
4.500000000e-05,5.000000000e+00,2.176214195e-01,-4.782378581e-03
4.600000000e-05,5.000000000e+00,2.224014081e-01,-4.777598592e-03
4.700000000e-05,5.000000000e+00,2.271766190e-01,-4.772823381e-03
4.800000000e-05,5.000000000e+00,2.319470572e-01,-4.768052943e-03
4.900000000e-05,5.000000000e+00,2.367127273e-01,-4.763287273e-03
5.000000000e-05,5.000000000e+00,2.414736341e-01,-4.758526366e-03
5.100000000e-05,5.000000000e+00,2.462297824e-01,-4.753770218e-03
5.200000000e-05,5.000000000e+00,2.509811769e-01,-4.749018823e-03
5.300000000e-05,5.000000000e+00,2.557278224e-01,-4.744272178e-03
5.400000000e-05,5.000000000e+00,2.604697237e-01,-4.739530276e-03
5.500000000e-05,5.000000000e+00,2.652068854e-01,-4.734793115e-03
5.600000000e-05,5.000000000e+00,2.699393123e-01,-4.730060688e-03
5.700000000e-05,5.000000000e+00,2.746670091e-01,-4.725332991e-03
5.800000000e-05,5.000000000e+00,2.793899806e-01,-4.720610019e-03
5.900000000e-05,5.000000000e+00,2.841082315e-01,-4.715891768e-03
6.000000000e-05,5.000000000e+00,2.888217665e-01,-4.711178233e-03
6.100000000e-05,5.000000000e+00,2.935305903e-01,-4.706469410e-03
6.200000000e-05,5.000000000e+00,2.982347077e-01,-4.701765292e-03
6.300000000e-05,5.000000000e+00,3.029341233e-01,-4.697065877e-03
6.400000000e-05,5.000000000e+00,3.076288418e-01,-4.692371158e-03
6.500000000e-05,5.000000000e+00,3.123188679e-01,-4.687681132e-03
6.600000000e-05,5.000000000e+00,3.170042064e-01,-4.682995794e-03
6.700000000e-05,5.000000000e+00,3.216848619e-01,-4.678315138e-03
6.800000000e-05,5.000000000e+00,3.263608390e-01,-4.673639161e-03
6.900000000e-05,5.000000000e+00,3.310321425e-01,-4.668967857e-03
7.000000000e-05,5.000000000e+00,3.356987771e-01,-4.664301223e-03
7.100000000e-05,5.000000000e+00,3.403607473e-01,-4.659639253e-03
7.200000000e-05,5.000000000e+00,3.450180579e-01,-4.654981942e-03
7.300000000e-05,5.000000000e+00,3.496707135e-01,-4.650329286e-03
7.400000000e-05,5.000000000e+00,3.543187188e-01,-4.645681281e-03
7.500000000e-05,5.000000000e+00,3.589620784e-01,-4.641037922e-03
7.600000000e-05,5.000000000e+00,3.636007970e-01,-4.636399203e-03
7.700000000e-05,5.000000000e+00,3.682348791e-01,-4.631765121e-03
7.800000000e-05,5.000000000e+00,3.728643295e-01,-4.627135670e-03
7.900000000e-05,5.000000000e+00,3.774891528e-01,-4.622510847e-03
8.000000000e-05,5.000000000e+00,3.821093535e-01,-4.617890646e-03
8.100000000e-05,5.000000000e+00,3.867249364e-01,-4.613275064e-03
8.200000000e-05,5.000000000e+00,3.913359059e-01,-4.608664094e-03
8.300000000e-05,5.000000000e+00,3.959422669e-01,-4.604057733e-03
8.400000000e-05,5.000000000e+00,4.005440237e-01,-4.599455976e-03
8.500000000e-05,5.000000000e+00,4.051411811e-01,-4.594858819e-03
8.600000000e-05,5.000000000e+00,4.097337437e-01,-4.590266256e-03
8.700000000e-05,5.000000000e+00,4.143217159e-01,-4.585678284e-03
8.800000000e-05,5.000000000e+00,4.189051025e-01,-4.581094897e-03
8.900000000e-05,5.000000000e+00,4.234839080e-01,-4.576516092e-03
9.000000000e-05,5.000000000e+00,4.280581370e-01,-4.571941863e-03
9.100000000e-05,5.000000000e+00,4.326277940e-01,-4.567372206e-03
9.200000000e-05,5.000000000e+00,4.371928837e-01,-4.562807116e-03
9.300000000e-05,5.000000000e+00,4.417534105e-01,-4.558246589e-03
9.400000000e-05,5.000000000e+00,4.463093791e-01,-4.553690621e-03
9.500000000e-05,5.000000000e+00,4.508607941e-01,-4.549139206e-03
9.600000000e-05,5.000000000e+00,4.554076598e-01,-4.544592340e-03
9.700000000e-05,5.000000000e+00,4.599499810e-01,-4.540050019e-03
9.800000000e-05,5.000000000e+00,4.644877621e-01,-4.535512238e-03
9.900000000e-05,5.000000000e+00,4.690210077e-01,-4.530978992e-03
1.000000000e-04,5.000000000e+00,4.735497224e-01,-4.526450278e-03
1.010000000e-04,5.000000000e+00,4.780739106e-01,-4.521926089e-03
1.020000000e-04,5.000000000e+00,4.825935768e-01,-4.517406423e-03
1.030000000e-04,5.000000000e+00,4.871087257e-01,-4.512891274e-03
1.040000000e-04,5.000000000e+00,4.916193616e-01,-4.508380638e-03
1.050000000e-04,5.000000000e+00,4.961254892e-01,-4.503874511e-03
1.060000000e-04,5.000000000e+00,5.006271129e-01,-4.499372887e-03
1.070000000e-04,5.000000000e+00,5.051242372e-01,-4.494875763e-03
1.080000000e-04,5.000000000e+00,5.096168667e-01,-4.490383133e-03
1.090000000e-04,5.000000000e+00,5.141050057e-01,-4.485894994e-03
1.100000000e-04,5.000000000e+00,5.185886589e-01,-4.481411341e-03
1.110000000e-04,5.000000000e+00,5.230678307e-01,-4.476932169e-03
1.120000000e-04,5.000000000e+00,5.275425255e-01,-4.472457475e-03
1.130000000e-04,5.000000000e+00,5.320127478e-01,-4.467987252e-03
1.140000000e-04,5.000000000e+00,5.364785022e-01,-4.463521498e-03
1.150000000e-04,5.000000000e+00,5.409397931e-01,-4.459060207e-03
1.160000000e-04,5.000000000e+00,5.453966249e-01,-4.454603375e-03
1.170000000e-04,5.000000000e+00,5.498490021e-01,-4.450150998e-03
1.180000000e-04,5.000000000e+00,5.542969291e-01,-4.445703071e-03
1.190000000e-04,5.000000000e+00,5.587404104e-01,-4.441259590e-03
1.200000000e-04,5.000000000e+00,5.631794505e-01,-4.436820550e-03
1.210000000e-04,5.000000000e+00,5.676140537e-01,-4.432385946e-03
1.220000000e-04,5.000000000e+00,5.720442246e-01,-4.427955775e-03
1.230000000e-04,5.000000000e+00,5.764699675e-01,-4.423530033e-03
1.240000000e-04,5.000000000e+00,5.808912869e-01,-4.419108713e-03
1.250000000e-04,5.000000000e+00,5.853081871e-01,-4.414691813e-03
1.260000000e-04,5.000000000e+00,5.897206727e-01,-4.410279327e-03
1.270000000e-04,5.000000000e+00,5.941287480e-01,-4.405871252e-03
1.280000000e-04,5.000000000e+00,5.985324174e-01,-4.401467583e-03
1.290000000e-04,5.000000000e+00,6.029316854e-01,-4.397068315e-03
1.300000000e-04,5.000000000e+00,6.073265562e-01,-4.392673444e-03
1.310000000e-04,5.000000000e+00,6.117170344e-01,-4.388282966e-03
1.320000000e-04,5.000000000e+00,6.161031244e-01,-4.383896876e-03
1.330000000e-04,5.000000000e+00,6.204848304e-01,-4.379515170e-03
1.340000000e-04,5.000000000e+00,6.248621569e-01,-4.375137843e-03
1.350000000e-04,5.000000000e+00,6.292351083e-01,-4.370764892e-03
1.360000000e-04,5.000000000e+00,6.336036889e-01,-4.366396311e-03
1.370000000e-04,5.000000000e+00,6.379679031e-01,-4.362032097e-03
1.380000000e-04,5.000000000e+00,6.423277552e-01,-4.357672245e-03
1.390000000e-04,5.000000000e+00,6.466832497e-01,-4.353316750e-03
1.400000000e-04,5.000000000e+00,6.510343909e-01,-4.348965609e-03
1.410000000e-04,5.000000000e+00,6.553811831e-01,-4.344618817e-03
1.420000000e-04,5.000000000e+00,6.597236307e-01,-4.340276369e-03
1.430000000e-04,5.000000000e+00,6.640617380e-01,-4.335938262e-03
1.440000000e-04,5.000000000e+00,6.683955094e-01,-4.331604491e-03
1.450000000e-04,5.000000000e+00,6.727249492e-01,-4.327275051e-03
1.460000000e-04,5.000000000e+00,6.770500617e-01,-4.322949938e-03
1.470000000e-04,5.000000000e+00,6.813708512e-01,-4.318629149e-03
1.480000000e-04,5.000000000e+00,6.856873221e-01,-4.314312678e-03
1.490000000e-04,5.000000000e+00,6.899994787e-01,-4.310000521e-03
1.500000000e-04,5.000000000e+00,6.943073253e-01,-4.305692675e-03
1.510000000e-04,5.000000000e+00,6.986108662e-01,-4.301389134e-03
1.520000000e-04,5.000000000e+00,7.029101057e-01,-4.297089894e-03
1.530000000e-04,5.000000000e+00,7.072050482e-01,-4.292794952e-03
1.540000000e-04,5.000000000e+00,7.114956978e-01,-4.288504302e-03
1.550000000e-04,5.000000000e+00,7.157820589e-01,-4.284217941e-03
1.560000000e-04,5.000000000e+00,7.200641358e-01,-4.279935864e-03
1.570000000e-04,5.000000000e+00,7.243419328e-01,-4.275658067e-03
1.580000000e-04,5.000000000e+00,7.286154541e-01,-4.271384546e-03
1.590000000e-04,5.000000000e+00,7.328847040e-01,-4.267115296e-03
1.600000000e-04,5.000000000e+00,7.371496868e-01,-4.262850313e-03
1.610000000e-04,5.000000000e+00,7.414104068e-01,-4.258589593e-03
1.620000000e-04,5.000000000e+00,7.456668681e-01,-4.254333132e-03
1.630000000e-04,5.000000000e+00,7.499190752e-01,-4.250080925e-03
1.640000000e-04,5.000000000e+00,7.541670321e-01,-4.245832968e-03
1.650000000e-04,5.000000000e+00,7.584107432e-01,-4.241589257e-03
1.660000000e-04,5.000000000e+00,7.626502127e-01,-4.237349787e-03
1.670000000e-04,5.000000000e+00,7.668854449e-01,-4.233114555e-03
1.680000000e-04,5.000000000e+00,7.711164440e-01,-4.228883556e-03
1.690000000e-04,5.000000000e+00,7.753432141e-01,-4.224656786e-03
1.700000000e-04,5.000000000e+00,7.795657597e-01,-4.220434240e-03
1.710000000e-04,5.000000000e+00,7.837840847e-01,-4.216215915e-03
1.720000000e-04,5.000000000e+00,7.879981936e-01,-4.212001806e-03
1.730000000e-04,5.000000000e+00,7.922080905e-01,-4.207791910e-03
1.740000000e-04,5.000000000e+00,7.964137795e-01,-4.203586220e-03
1.750000000e-04,5.000000000e+00,8.006152650e-01,-4.199384735e-03
1.760000000e-04,5.000000000e+00,8.048125511e-01,-4.195187449e-03
1.770000000e-04,5.000000000e+00,8.090056420e-01,-4.190994358e-03
1.780000000e-04,5.000000000e+00,8.131945419e-01,-4.186805458e-03
1.790000000e-04,5.000000000e+00,8.173792550e-01,-4.182620745e-03
1.800000000e-04,5.000000000e+00,8.215597855e-01,-4.178440215e-03
1.810000000e-04,5.000000000e+00,8.257361375e-01,-4.174263862e-03
1.820000000e-04,5.000000000e+00,8.299083153e-01,-4.170091685e-03
1.830000000e-04,5.000000000e+00,8.340763230e-01,-4.165923677e-03
1.840000000e-04,5.000000000e+00,8.382401647e-01,-4.161759835e-03
1.850000000e-04,5.000000000e+00,8.423998447e-01,-4.157600155e-03
1.860000000e-04,5.000000000e+00,8.465553671e-01,-4.153444633e-03
1.870000000e-04,5.000000000e+00,8.507067361e-01,-4.149293264e-03
1.880000000e-04,5.000000000e+00,8.548539557e-01,-4.145146044e-03
1.890000000e-04,5.000000000e+00,8.589970302e-01,-4.141002970e-03
1.900000000e-04,5.000000000e+00,8.631359637e-01,-4.136864036e-03
1.910000000e-04,5.000000000e+00,8.672707604e-01,-4.132729240e-03
1.920000000e-04,5.000000000e+00,8.714014243e-01,-4.128598576e-03
1.930000000e-04,5.000000000e+00,8.755279596e-01,-4.124472040e-03
1.940000000e-04,5.000000000e+00,8.796503704e-01,-4.120349630e-03
1.950000000e-04,5.000000000e+00,8.837686609e-01,-4.116231339e-03
1.960000000e-04,5.000000000e+00,8.878828352e-01,-4.112117165e-03
1.970000000e-04,5.000000000e+00,8.919928973e-01,-4.108007103e-03
1.980000000e-04,5.000000000e+00,8.960988514e-01,-4.103901149e-03
1.990000000e-04,5.000000000e+00,9.002007016e-01,-4.099799298e-03
2.000000000e-04,5.000000000e+00,9.042984521e-01,-4.095701548e-03
2.010000000e-04,5.000000000e+00,9.083921068e-01,-4.091607893e-03
2.020000000e-04,5.000000000e+00,9.124816699e-01,-4.087518330e-03
2.030000000e-04,5.000000000e+00,9.165671455e-01,-4.083432855e-03
2.040000000e-04,5.000000000e+00,9.206485376e-01,-4.079351462e-03
2.050000000e-04,5.000000000e+00,9.247258505e-01,-4.075274150e-03
2.060000000e-04,5.000000000e+00,9.287990880e-01,-4.071200912e-03
2.070000000e-04,5.000000000e+00,9.328682543e-01,-4.067131746e-03
2.080000000e-04,5.000000000e+00,9.369333535e-01,-4.063066646e-03
2.090000000e-04,5.000000000e+00,9.409943896e-01,-4.059005610e-03
2.100000000e-04,5.000000000e+00,9.450513668e-01,-4.054948633e-03
2.110000000e-04,5.000000000e+00,9.491042889e-01,-4.050895711e-03
2.120000000e-04,5.000000000e+00,9.531531602e-01,-4.046846840e-03
2.130000000e-04,5.000000000e+00,9.571979846e-01,-4.042802015e-03
2.140000000e-04,5.000000000e+00,9.612387663e-01,-4.038761234e-03
2.150000000e-04,5.000000000e+00,9.652755091e-01,-4.034724491e-03
2.160000000e-04,5.000000000e+00,9.693082173e-01,-4.030691783e-03
2.170000000e-04,5.000000000e+00,9.733368947e-01,-4.026663105e-03
2.180000000e-04,5.000000000e+00,9.773615455e-01,-4.022638455e-03
2.190000000e-04,5.000000000e+00,9.813821736e-01,-4.018617826e-03
2.200000000e-04,5.000000000e+00,9.853987831e-01,-4.014601217e-03
2.210000000e-04,5.000000000e+00,9.894113781e-01,-4.010588622e-03
2.220000000e-04,5.000000000e+00,9.934199624e-01,-4.006580038e-03
2.230000000e-04,5.000000000e+00,9.974245401e-01,-4.002575460e-03
2.240000000e-04,5.000000000e+00,1.001425115e+00,-3.998574885e-03
2.250000000e-04,5.000000000e+00,1.005421692e+00,-3.994578308e-03
2.260000000e-04,5.000000000e+00,1.009414274e+00,-3.990585726e-03
2.270000000e-04,5.000000000e+00,1.013402865e+00,-3.986597135e-03
2.280000000e-04,5.000000000e+00,1.017387470e+00,-3.982612530e-03
2.290000000e-04,5.000000000e+00,1.021368092e+00,-3.978631908e-03
2.300000000e-04,5.000000000e+00,1.025344736e+00,-3.974655264e-03
2.310000000e-04,5.000000000e+00,1.029317405e+00,-3.970682595e-03
2.320000000e-04,5.000000000e+00,1.033286103e+00,-3.966713897e-03
2.330000000e-04,5.000000000e+00,1.037250835e+00,-3.962749165e-03
2.340000000e-04,5.000000000e+00,1.041211603e+00,-3.958788397e-03
2.350000000e-04,5.000000000e+00,1.045168413e+00,-3.954831587e-03
2.360000000e-04,5.000000000e+00,1.049121269e+00,-3.950878731e-03
2.370000000e-04,5.000000000e+00,1.053070173e+00,-3.946929827e-03
2.380000000e-04,5.000000000e+00,1.057015130e+00,-3.942984870e-03
2.390000000e-04,5.000000000e+00,1.060956145e+00,-3.939043855e-03
2.400000000e-04,5.000000000e+00,1.064893220e+00,-3.935106780e-03
2.410000000e-04,5.000000000e+00,1.068826360e+00,-3.931173640e-03
2.420000000e-04,5.000000000e+00,1.072755569e+00,-3.927244431e-03
2.430000000e-04,5.000000000e+00,1.076680851e+00,-3.923319149e-03
2.440000000e-04,5.000000000e+00,1.080602209e+00,-3.919397791e-03
2.450000000e-04,5.000000000e+00,1.084519649e+00,-3.915480351e-03
2.460000000e-04,5.000000000e+00,1.088433172e+00,-3.911566828e-03
2.470000000e-04,5.000000000e+00,1.092342784e+00,-3.907657216e-03
2.480000000e-04,5.000000000e+00,1.096248488e+00,-3.903751512e-03
2.490000000e-04,5.000000000e+00,1.100150289e+00,-3.899849711e-03
2.500000000e-04,5.000000000e+00,1.104048190e+00,-3.895951810e-03
2.510000000e-04,5.000000000e+00,1.107942195e+00,-3.892057805e-03
2.520000000e-04,5.000000000e+00,1.111832307e+00,-3.888167693e-03
2.530000000e-04,5.000000000e+00,1.115718532e+00,-3.884281468e-03
2.540000000e-04,5.000000000e+00,1.119600872e+00,-3.880399128e-03
2.550000000e-04,5.000000000e+00,1.123479332e+00,-3.876520668e-03
2.560000000e-04,5.000000000e+00,1.127353916e+00,-3.872646084e-03
2.570000000e-04,5.000000000e+00,1.131224626e+00,-3.868775374e-03
2.580000000e-04,5.000000000e+00,1.135091468e+00,-3.864908532e-03
2.590000000e-04,5.000000000e+00,1.138954445e+00,-3.861045555e-03
2.600000000e-04,5.000000000e+00,1.142813561e+00,-3.857186439e-03
2.610000000e-04,5.000000000e+00,1.146668820e+00,-3.853331180e-03
2.620000000e-04,5.000000000e+00,1.150520226e+00,-3.849479774e-03
2.630000000e-04,5.000000000e+00,1.154367782e+00,-3.845632218e-03
2.640000000e-04,5.000000000e+00,1.158211492e+00,-3.841788508e-03
2.650000000e-04,5.000000000e+00,1.162051361e+00,-3.837948639e-03
2.660000000e-04,5.000000000e+00,1.165887391e+00,-3.834112609e-03
2.670000000e-04,5.000000000e+00,1.169719588e+00,-3.830280412e-03
2.680000000e-04,5.000000000e+00,1.173547954e+00,-3.826452046e-03
2.690000000e-04,5.000000000e+00,1.177372494e+00,-3.822627506e-03
2.700000000e-04,5.000000000e+00,1.181193211e+00,-3.818806789e-03
2.710000000e-04,5.000000000e+00,1.185010109e+00,-3.814989891e-03
2.720000000e-04,5.000000000e+00,1.188823192e+00,-3.811176808e-03
2.730000000e-04,5.000000000e+00,1.192632465e+00,-3.807367535e-03
2.740000000e-04,5.000000000e+00,1.196437929e+00,-3.803562071e-03
2.750000000e-04,5.000000000e+00,1.200239591e+00,-3.799760409e-03
2.760000000e-04,5.000000000e+00,1.204037452e+00,-3.795962548e-03
2.770000000e-04,5.000000000e+00,1.207831518e+00,-3.792168482e-03
2.780000000e-04,5.000000000e+00,1.211621791e+00,-3.788378209e-03
2.790000000e-04,5.000000000e+00,1.215408276e+00,-3.784591724e-03
2.800000000e-04,5.000000000e+00,1.219190976e+00,-3.780809024e-03
2.810000000e-04,5.000000000e+00,1.222969896e+00,-3.777030104e-03
2.820000000e-04,5.000000000e+00,1.226745038e+00,-3.773254962e-03
2.830000000e-04,5.000000000e+00,1.230516408e+00,-3.769483592e-03
2.840000000e-04,5.000000000e+00,1.234284008e+00,-3.765715992e-03
2.850000000e-04,5.000000000e+00,1.238047842e+00,-3.761952158e-03
2.860000000e-04,5.000000000e+00,1.241807914e+00,-3.758192086e-03
2.870000000e-04,5.000000000e+00,1.245564228e+00,-3.754435772e-03
2.880000000e-04,5.000000000e+00,1.249316787e+00,-3.750683213e-03
2.890000000e-04,5.000000000e+00,1.253065596e+00,-3.746934404e-03
2.900000000e-04,5.000000000e+00,1.256810658e+00,-3.743189342e-03
2.910000000e-04,5.000000000e+00,1.260551977e+00,-3.739448023e-03
2.920000000e-04,5.000000000e+00,1.264289556e+00,-3.735710444e-03
2.930000000e-04,5.000000000e+00,1.268023399e+00,-3.731976601e-03
2.940000000e-04,5.000000000e+00,1.271753511e+00,-3.728246489e-03
2.950000000e-04,5.000000000e+00,1.275479894e+00,-3.724520106e-03
2.960000000e-04,5.000000000e+00,1.279202553e+00,-3.720797447e-03
2.970000000e-04,5.000000000e+00,1.282921491e+00,-3.717078509e-03
2.980000000e-04,5.000000000e+00,1.286636712e+00,-3.713363288e-03
2.990000000e-04,5.000000000e+00,1.290348219e+00,-3.709651781e-03
3.000000000e-04,5.000000000e+00,1.294056017e+00,-3.705943983e-03
3.010000000e-04,5.000000000e+00,1.297760109e+00,-3.702239891e-03
3.020000000e-04,5.000000000e+00,1.301460499e+00,-3.698539501e-03
3.030000000e-04,5.000000000e+00,1.305157190e+00,-3.694842810e-03
3.040000000e-04,5.000000000e+00,1.308850186e+00,-3.691149814e-03
3.050000000e-04,5.000000000e+00,1.312539491e+00,-3.687460509e-03
3.060000000e-04,5.000000000e+00,1.316225109e+00,-3.683774891e-03
