time,V(a),V(b),V(c),I(Va),I(Vb),I(Vc),chan:CLK,chan:CLK.alpha,chan:CLK.beta,chan:CLK.gamma,chan:PARK,chan:PARK.d,chan:PARK.q,chan:PARK.zero,chan:PLL,chan:PLL.lock_error,chan:PLL.omega,chan:PLL.theta
0.000000000e+00,0.000000000e+00,0.000000000e+00,0.000000000e+00,-0.000000000e+00,-0.000000000e+00,-0.000000000e+00,0.000000000e+00,0.000000000e+00,0.000000000e+00,0.000000000e+00,0.000000000e+00,0.000000000e+00,0.000000000e+00,0.000000000e+00,0.000000000e+00,nan,nan,0.000000000e+00
5.000000000e-05,1.884843972e+00,-1.741321182e+02,1.722472735e+02,0.000000000e+00,0.000000000e+00,0.000000000e+00,1.884844212e+00,1.884844212e+00,-1.999822351e+02,-2.406004474e-07,-1.884843728e+00,-1.884843728e+00,-1.999822351e+02,0.000000000e+00,1.884955592e-02,-0.000000000e+00,3.769911184e+02,1.884955592e-02
1.000000000e-04,3.769018267e+00,-1.822975651e+00,-1.946042623e+00,0.000000000e+00,0.000000000e+00,0.000000000e+00,3.769018270e+00,3.769018270e+00,7.105274942e-02,-2.518846391e-09,3.769067819e+00,3.769067819e+00,-6.837385123e-02,0.000000000e+00,3.698835551e-02,-7.104011359e-02,3.627759917e+02,3.698835551e-02
1.500000000e-04,5.651853448e+00,-1.758925779e+02,1.702407237e+02,0.000000000e+00,0.000000000e+00,0.000000000e+00,5.651853691e+00,5.651853691e+00,-1.998401549e+02,-2.430329099e-07,-5.091838148e+00,-5.091838148e+00,-1.998552079e+02,0.000000000e+00,5.374646021e-02,-2.090050990e-01,3.351620941e+02,5.374646021e-02
2.000000000e-04,7.532680553e+00,-3.520293806e+00,-4.012386762e+00,0.000000000e+00,0.000000000e+00,0.000000000e+00,7.532680558e+00,7.532680558e+00,2.841100008e-01,-4.864027699e-09,7.534450491e+00,7.534450491e+00,-2.324880116e-01,0.000000000e+00,6.854599233e-02,-4.046600276e-01,2.959906424e+02,6.854599233e-02
2.500000000e-04,9.410831332e+00,-1.775261515e+02,1.681153194e+02,0.000000000e+00,0.000000000e+00,0.000000000e+00,9.410831577e+00,9.410831577e+00,-1.995561963e+02,-2.452900484e-07,-6.755066095e+00,-6.755066095e+00,-1.996637381e+02,0.000000000e+00,8.094320450e-02,-6.445697380e-01,2.479442433e+02,8.094320450e-02
3.000000000e-04,1.128563849e+01,-5.089542481e+00,-6.196096028e+00,0.000000000e+00,0.000000000e+00,0.000000000e+00,1.128563849e+01,1.128563849e+01,6.388689881e-01,-7.032282608e-09,1.129713247e+01,1.129713247e+01,-3.854708946e-01,0.000000000e+00,9.065656592e-02,-9.124985634e-01,1.942672284e+02,9.065656592e-02
3.500000000e-04,1.315643591e+01,-1.790305177e+02,1.658740810e+02,0.000000000e+00,0.000000000e+00,0.000000000e+00,1.315643616e+01,1.315643616e+01,-1.991307629e+02,-2.473686417e-07,-6.306132783e+00,-6.306132783e+00,-1.994652482e+02,0.000000000e+00,9.757811532e-02,-1.191084224e+00,1.384309880e+02,9.757811532e-02
4.000000000e-04,1.502255891e+01,-6.528491689e+00,-8.494067250e+00,0.000000000e+00,0.000000000e+00,0.000000000e+00,1.502255892e+01,1.502255892e+01,1.134825579e+00,-9.020514113e-09,1.506012358e+01,1.506012358e+01,-3.972197499e-01,0.000000000e+00,1.017677104e-01,-1.463547878e+00,8.379190235e+01,1.017677104e-01
4.500000000e-04,1.688334447e+01,-1.804035387e+02,1.635201934e+02,0.000000000e+00,0.000000000e+00,0.000000000e+00,1.688334472e+01,1.688334472e+01,-1.985644593e+02,-2.492657529e-07,-3.708215782e+00,-3.708215782e+00,-1.992464328e+02,0.000000000e+00,1.034320575e-01,-1.715215078e+00,3.328694071e+01,1.034320575e-01
5.000000000e-04,1.873813146e+01,-7.835096604e+00,-1.090303489e+01,0.000000000e+00,0.000000000e+00,0.000000000e+00,1.873813147e+01,1.873813147e+01,1.771274993e+00,-1.082586465e-08,1.882095945e+01,1.882095945e+01,-1.627000086e-01,0.000000000e+00,1.028921859e-01,-1.934669602e+00,-1.079743104e+01,1.028921859e-01
5.500000000e-04,2.058626088e+01,-1.816432633e+02,1.610570017e+02,0.000000000e+00,0.000000000e+00,0.000000000e+00,2.058626113e+01,2.058626113e+01,-1.978580902e+02,-2.509786915e-07,6.223235614e-01,6.223235614e-01,-1.989251888e+02,0.000000000e+00,1.005441390e-01,-2.114429926e+00,-4.696093889e+01,1.005441390e-01
6.000000000e-04,2.242707609e+01,-9.007500470e+00,-1.341957566e+01,0.000000000e+00,0.000000000e+00,0.000000000e+00,2.242707611e+01,2.242707611e+01,2.547312800e+00,-1.244579669e-08,2.256828618e+01,2.256828618e+01,3.674292855e-01,0.000000000e+00,9.681799793e-02,-2.251113780e+00,-7.452282090e+01,9.681799793e-02
6.500000000e-04,2.425992308e+01,-1.827479298e+02,1.584880060e+02,0.000000000e+00,0.000000000e+00,0.000000000e+00,2.425992333e+01,2.425992333e+01,-1.970126594e+02,-2.525050130e-07,6.029948561e+00,6.029948561e+00,-1.984091015e+02,0.000000000e+00,9.213997498e-02,-2.345129406e+00,-9.356045902e+01,9.213997498e-02
7.000000000e-04,2.608415063e+01,-1.004403724e+01,-1.604011344e+01,0.000000000e+00,0.000000000e+00,0.000000000e+00,2.608415064e+01,2.608415064e+01,3.461836208e+00,-1.387798794e-08,2.628618057e+01,2.628618057e+01,1.184877927e+00,0.000000000e+00,8.690130893e-02,-2.399993719e+00,-1.047733210e+02,8.690130893e-02
7.500000000e-04,2.789911060e+01,-1.837159685e+02,1.558168572e+02,0.000000000e+00,0.000000000e+00,0.000000000e+00,2.789911086e+01,2.789911086e+01,-1.960293683e+02,-2.538425671e-07,1.186038619e+01,1.186038619e+01,-1.976491965e+02,0.000000000e+00,8.143628448e-02,-2.421418848e+00,-1.093004889e+02,8.143628448e-02
8.000000000e-04,2.970415816e+01,-1.094323393e+01,-1.876092428e+01,0.000000000e+00,0.000000000e+00,0.000000000e+00,2.970415817e+01,2.970415817e+01,4.513545629e+00,-1.512041337e-08,2.996113594e+01,2.996113594e+01,2.244869780e+00,0.000000000e+00,7.601013274e-02,-2.416323416e+00,-1.085230348e+02,7.601013274e-02
8.500000000e-04,3.149865197e+01,-1.845460037e+02,1.530473510e+02,0.000000000e+00,0.000000000e+00,0.000000000e+00,3.149865222e+01,3.149865222e+01,-1.949096143e+02,-2.549894399e-07,1.762849146e+01,1.762849146e+01,-1.966498388e+02,0.000000000e+00,7.081613625e-02,-2.391911936e+00,-1.038799299e+02,7.081613625e-02
9.000000000e-04,3.328195445e+01,-1.170381273e+01,-2.157814177e+01,0.000000000e+00,0.000000000e+00,0.000000000e+00,3.328195447e+01,3.328195447e+01,5.700946526e+00,-1.617132620e-08,3.358541281e+01,3.358541281e+01,3.494185271e+00,0.000000000e+00,6.598018477e-02,-2.354929969e+00,-9.671902958e+01,6.598018477e-02
9.500000000e-04,3.505343202e+01,-1.852368559e+02,1.501834231e+02,0.000000000e+00,0.000000000e+00,0.000000000e+00,3.505343228e+01,3.505343228e+01,-1.936549884e+02,-2.559439736e-07,2.307112098e+01,2.307112098e+01,-1.954449309e+02,0.000000000e+00,6.157043543e-02,-2.311154179e+00,-8.819498689e+01,6.157043543e-02
1.000000000e-03,3.681245527e+01,-1.232469283e+01,-2.448776249e+01,0.000000000e+00,0.000000000e+00,0.000000000e+00,3.681245529e+01,3.681245529e+01,7.022351538e+00,-1.702921300e-08,3.715571565e+01,3.715571565e+01,4.891122547e+00,0.000000000e+00,5.760963109e-02,-2.265127115e+00,-7.921608678e+01,5.760963109e-02
1.050000000e-03,3.855839923e+01,-1.857875434e+02,1.472291434e+02,0.000000000e+00,0.000000000e+00,0.000000000e+00,3.855839948e+01,3.855839948e+01,-1.922672737e+02,-2.567048890e-07,2.810774263e+01,2.810774263e+01,-1.940706302e+02,0.000000000e+00,5.408793098e-02,-2.220106638e+00,-7.043400219e+01,5.408793098e-02
1.100000000e-03,4.029064357e+01,-1.280499192e+01,-2.748565170e+01,0.000000000e+00,0.000000000e+00,0.000000000e+00,4.029064359e+01,4.029064359e+01,8.475882877e+00,-1.769284334e-08,4.067017713e+01,4.067017713e+01,6.411960996e+00,0.000000000e+00,5.097465495e-02,-2.178175143e+00,-6.226552052e+01,5.097465495e-02
1.150000000e-03,4.200857284e+01,-1.861972835e+02,1.441887098e+02,0.000000000e+00,0.000000000e+00,0.000000000e+00,4.200857310e+01,4.200857310e+01,-1.907484422e+02,-2.572710211e-07,3.276388251e+01,3.276388251e+01,-1.925518538e+02,0.000000000e+00,4.822797549e-02,-2.140445264e+00,-5.493358925e+01,4.822797549e-02
1.200000000e-03,4.371157667e+01,-1.314402747e+01,-3.056754925e+01,0.000000000e+00,0.000000000e+00,0.000000000e+00,4.371157668e+01,4.371157668e+01,1.005947499e+01,-1.816129943e-08,4.412631952e+01,4.412631952e+01,8.047539909e+00,0.000000000e+00,4.580217498e-02,-2.107303717e+00,-4.851601027e+01,4.580217498e-02
1.250000000e-03,4.539904997e+01,-1.864654940e+02,1.410664432e+02,0.000000000e+00,0.000000000e+00,0.000000000e+00,4.539905023e+01,4.539905023e+01,-1.891006521e+02,-2.576416117e-07,3.710370057e+01,3.710370057e+01,-1.909016653e+02,0.000000000e+00,4.365253565e-02,-2.078648274e+00,-4.299278663e+01,4.365253565e-02
1.300000000e-03,4.707039322e+01,-1.334131768e+01,-3.372907559e+01,0.000000000e+00,0.000000000e+00,0.000000000e+00,4.707039323e+01,4.707039323e+01,1.177087752e+01,-1.843389915e-08,4.752055179e+01,4.752055179e+01,9.796562363e+00,0.000000000e+00,4.173821348e-02,-2.054089513e+00,-3.828644330e+01,4.173821348e-02
1.350000000e-03,4.872501257e+01,-1.865917938e+02,1.378667804e+02,0.000000000e+00,0.000000000e+00,0.000000000e+00,4.872501283e+01,4.872501283e+01,-1.873262452e+02,-2.578161021e-07,4.119052749e+01,4.119052749e+01,-1.891258561e+02,0.000000000e+00,4.002357540e-02,-2.033104552e+00,-3.429276154e+01,4.002357540e-02
1.400000000e-03,5.036232016e+01,-1.339658220e+01,-3.696573802e+01,0.000000000e+00,0.000000000e+00,0.000000000e+00,5.036232018e+01,5.036232018e+01,1.360765845e+01,-1.851026118e-08,5.084851462e+01,5.084851462e+01,1.166019827e+01,0.000000000e+00,3.847848700e-02,-2.015142013e+00,-3.090176798e+01,3.847848700e-02
1.450000000e-03,5.198173426e+01,-1.865760034e+02,1.345942684e+02,0.000000000e+00,0.000000000e+00,0.000000000e+00,5.198173452e+01,5.198173452e+01,-1.854277429e+02,-2.577942837e-07,4.507229777e+01,4.507229777e+01,-1.872272323e+02,0.000000000e+00,3.707797084e-02,-1.999684947e+00,-2.801032333e+01,3.707797084e-02
1.500000000e-03,5.358267950e+01,-1.330974250e+01,-4.027293705e+01,0.000000000e+00,0.000000000e+00,0.000000000e+00,5.358267952e+01,5.358267952e+01,1.556720763e+01,-1.839028840e-08,5.410555453e+01,5.410555453e+01,1.363929862e+01,0.000000000e+00,3.580155434e-02,-1.986281839e+00,-2.552832991e+01,3.580155434e-02
1.550000000e-03,5.516458706e+01,-1.864181452e+02,1.312535574e+02,0.000000000e+00,0.000000000e+00,0.000000000e+00,5.516458732e+01,5.516458732e+01,-1.834078430e+02,-2.575761660e-07,4.878090151e+01,4.878090151e+01,-1.852079702e+02,0.000000000e+00,3.463252263e-02,-1.974556083e+00,-2.338063432e+01,3.463252263e-02
1.600000000e-03,5.672689491e+01,-1.308092198e+01,-4.364597299e+01,0.000000000e+00,0.000000000e+00,0.000000000e+00,5.672689493e+01,5.672689493e+01,1.764674043e+01,-1.807413004e-08,5.728702237e+01,5.728702237e+01,1.573356681e+01,0.000000000e+00,3.355720304e-02,-1.964202769e+00,-2.150639165e+01,3.355720304e-02
1.650000000e-03,5.826904797e+01,-1.861184436e+02,1.278493949e+02,0.000000000e+00,0.000000000e+00,0.000000000e+00,5.826904822e+01,5.826904822e+01,-1.812694161e+02,-2.571620712e-07,5.233627940e+01,5.233627940e+01,-1.830704702e+02,0.000000000e+00,3.256434312e-02,-1.954979313e+00,-1.985719847e+01,3.256434312e-02
1.700000000e-03,5.979049831e+01,-1.271044580e+01,-4.708005256e+01,0.000000000e+00,0.000000000e+00,0.000000000e+00,5.979049832e+01,5.979049832e+01,1.984330171e+01,-1.756221716e-08,6.038839286e+01,6.038839286e+01,1.794163650e+01,0.000000000e+00,3.164460084e-02,-1.946694202e+00,-1.839484566e+01,3.164460084e-02
1.750000000e-03,6.129070537e+01,-1.856773245e+02,1.243866184e+02,0.000000000e+00,0.000000000e+00,0.000000000e+00,6.129070562e+01,6.129070562e+01,-1.790155009e+02,-2.565525534e-07,5.575061323e+01,5.575061323e+01,-1.808175027e+02,0.000000000e+00,3.079014236e-02,-1.939196223e+00,-1.708916946e+01,3.079014236e-02
1.800000000e-03,6.276913613e+01,-1.219884043e+01,-5.057029575e+01,0.000000000e+00,0.000000000e+00,0.000000000e+00,6.276913615e+01,6.276913615e+01,2.215377005e+01,-1.685532188e-08,6.340529072e+01,6.340529072e+01,2.026136938e+01,0.000000000e+00,2.999433150e-02,-1.932365279e+00,-1.591621730e+01,2.999433150e-02
1.850000000e-03,6.422526532e+01,-1.850954147e+02,1.208701486e+02,0.000000000e+00,0.000000000e+00,0.000000000e+00,6.422526557e+01,6.422526557e+01,-1.766493003e+02,-2.557485601e-07,5.903127158e+01,5.903127158e+01,-1.784521477e+02,0.000000000e+00,2.925149229e-02,-1.926105062e+00,-1.485678425e+01,2.925149229e-02
1.900000000e-03,6.565857558e+01,-1.154683290e+01,-5.411174272e+01,0.000000000e+00,0.000000000e+00,0.000000000e+00,6.565857559e+01,6.565857559e+01,2.457486215e+01,-1.595442474e-08,6.633348783e+01,6.633348783e+01,2.269010336e+01,0.000000000e+00,2.855672767e-02,-1.920337434e+00,-1.389529238e+01,2.855672767e-02
1.950000000e-03,6.706855765e+01,-1.843735411e+02,1.173049827e+02,0.000000000e+00,0.000000000e+00,0.000000000e+00,6.706855791e+01,6.706855791e+01,-1.741741769e+02,-2.547511523e-07,6.218260991e+01,6.218260991e+01,-1.759777213e+02,0.000000000e+00,2.790578004e-02,-1.914998235e+00,-1.301895254e+01,2.790578004e-02
2.000000000e-03,6.845471059e+01,-1.075534973e+01,-5.769936090e+01,0.000000000e+00,0.000000000e+00,0.000000000e+00,6.845471061e+01,6.845471061e+01,2.710313748e+01,-1.486080710e-08,6.916889857e+01,6.916889857e+01,2.522480797e+01,0.000000000e+00,2.729492287e-02,-1.910034173e+00,-1.221714351e+01,2.729492287e-02
2.050000000e-03,6.981654190e+01,-1.835127296e+02,1.136961869e+02,0.000000000e+00,0.000000000e+00,0.000000000e+00,6.981654215e+01,6.981654215e+01,-1.715936479e+02,-2.535617464e-07,6.520703210e+01,6.520703210e+01,-1.733977293e+02,0.000000000e+00,2.672087528e-02,-1.905400514e+00,-1.148095175e+01,2.672087528e-02
2.100000000e-03,7.115356772e+01,-9.825515680e+00,-6.132805208e+01,0.000000000e+00,0.000000000e+00,0.000000000e+00,7.115356773e+01,7.115356773e+01,2.973500325e+01,-1.357603689e-08,7.190757898e+01,7.190757898e+01,2.786217337e+01,0.000000000e+00,2.618073391e-02,-1.901059362e+00,-1.080282730e+01,2.618073391e-02
2.150000000e-03,7.246531302e+01,-1.825142034e+02,1.100488896e+02,0.000000000e+00,0.000000000e+00,0.000000000e+00,7.246531327e+01,7.246531327e+01,-1.689113805e+02,-2.521820951e-07,6.810563277e+01,6.810563277e+01,-1.707158424e+02,0.000000000e+00,2.567191775e-02,-1.896978353e+00,-1.017632328e+01,2.567191775e-02
2.200000000e-03,7.375131174e+01,-8.758652082e+00,-6.499265969e+01,0.000000000e+00,0.000000000e+00,0.000000000e+00,7.375131175e+01,7.375131175e+01,3.246671943e+01,-1.210191651e-08,7.454572918e+01,7.454572918e+01,3.059866199e+01,0.000000000e+00,2.519212297e-02,-1.893129649e+00,-9.595895498e+00,2.519212297e-02
2.250000000e-03,7.501110696e+01,-1.813793814e+02,1.063682737e+02,0.000000000e+00,0.000000000e+00,0.000000000e+00,7.501110721e+01,7.501110721e+01,-1.661311861e+02,-2.506141025e-07,7.087860613e+01,7.087860613e+01,-1.679358818e+02,0.000000000e+00,2.473928567e-02,-1.889489158e+00,-9.056746137e+00,2.473928567e-02
2.300000000e-03,7.624425110e+01,-7.556275011e+00,-6.868797612e+01,0.000000000e+00,0.000000000e+00,0.000000000e+00,7.624425111e+01,7.624425111e+01,3.529440409e+01,-1.044057285e-08,7.707969725e+01,7.707969725e+01,3.343054082e+01,0.000000000e+00,2.431155067e-02,-1.886035909e+00,-8.554699974e+00,2.431155067e-02
2.350000000e-03,7.745030602e+01,-1.801098764e+02,1.026595696e+02,0.000000000e+00,0.000000000e+00,0.000000000e+00,7.745030627e+01,7.745030627e+01,-1.632570158e+02,-2.488600472e-07,7.352551996e+01,7.352551996e+01,-1.650618098e+02,0.000000000e+00,2.390724541e-02,-1.882751559e+00,-8.086105166e+00,2.390724541e-02
2.400000000e-03,7.862884321e+01,-6.220093111e+00,-7.240875013e+01,0.000000000e+00,0.000000000e+00,0.000000000e+00,7.862884322e+01,7.862884322e+01,3.821403895e+01,-8.594336502e-09,7.950598379e+01,7.950598379e+01,3.635390350e+01,0.000000000e+00,2.352485777e-02,-1.879619988e+00,-7.647752866e+00,2.352485777e-02
2.450000000e-03,7.977944395e+01,-1.787074924e+02,9.892804767e+01,0.000000000e+00,0.000000000e+00,0.000000000e+00,7.977944420e+01,7.977944420e+01,-1.602929538e+02,-2.469223498e-07,7.604550686e+01,7.604550686e+01,-1.620977225e+02,0.000000000e+00,2.316301719e-02,-1.876626967e+00,-7.236811454e+00,2.316301719e-02
2.500000000e-03,8.090169944e+01,-4.752005169e+00,-7.614969429e+01,0.000000000e+00,0.000000000e+00,0.000000000e+00,8.090169944e+01,8.090169944e+01,4.122147503e+01,-6.565874363e-09,8.182124674e+01,8.182124674e+01,3.936468670e+01,0.000000000e+00,2.282047858e-02,-1.873759891e+00,-6.850772295e+00,2.282047858e-02
2.550000000e-03,8.199521093e+01,-1.771742221e+02,9.517901047e+01,0.000000000e+00,0.000000000e+00,0.000000000e+00,8.199521118e+01,8.199521118e+01,-1.572432122e+02,-2.448038240e-07,7.843740221e+01,7.843740221e+01,-1.590478430e+02,0.000000000e+00,2.249610835e-02,-1.871007549e+00,-6.487404665e+00,2.249610835e-02
2.600000000e-03,8.305958992e+01,-3.154097419e+00,-7.990549251e+01,0.000000000e+00,0.000000000e+00,0.000000000e+00,8.305958992e+01,8.305958992e+01,4.431243862e+01,-4.357995446e-09,8.402230610e+01,8.402230610e+01,4.245868312e+01,0.000000000e+00,2.218887244e-02,-1.868359936e+00,-6.144718051e+00,2.218887244e-02
2.650000000e-03,8.409445823e+01,-1.755122446e+02,9.141778563e+01,0.000000000e+00,0.000000000e+00,0.000000000e+00,8.409445847e+01,8.409445847e+01,-1.541121248e+02,-2.425074446e-07,8.069984623e+01,8.069984623e+01,-1.559165154e+02,0.000000000e+00,2.189782592e-02,-1.865808094e+00,-5.820930427e+00,2.189782592e-02
2.700000000e-03,8.509944818e+01,-1.428640575e+00,-8.367080761e+01,0.000000000e+00,0.000000000e+00,0.000000000e+00,8.509944818e+01,8.509944818e+01,4.748253728e+01,-1.973925616e-09,8.610614866e+01,8.610614866e+01,4.563155256e+01,0.000000000e+00,2.162210385e-02,-1.863343977e+00,-5.514441415e+00,2.162210385e-02
2.750000000e-03,8.607420270e+01,-1.737239215e+02,8.764971807e+01,0.000000000e+00,0.000000000e+00,0.000000000e+00,8.607420294e+01,8.607420294e+01,-1.509041412e+02,-2.400365181e-07,8.283136119e+01,8.283136119e+01,-1.527081983e+02,0.000000000e+00,2.136091338e-02,-1.860960337e+00,-5.223809462e+00,2.136091338e-02
2.800000000e-03,8.701837547e+01,4.219133940e-01,-8.744028886e+01,0.000000000e+00,0.000000000e+00,0.000000000e+00,8.701837547e+01,8.701837547e+01,5.072726612e+01,5.830239994e-10,8.806993254e+01,8.806993254e+01,4.887883162e+01,0.000000000e+00,2.111352676e-02,-1.858650626e+00,-4.947732341e+00,2.111352676e-02
2.850000000e-03,8.793163102e+01,-1.718117941e+02,8.388016241e+01,0.000000000e+00,0.000000000e+00,0.000000000e+00,8.793163126e+01,8.793163126e+01,-1.476238199e+02,-2.373945070e-07,8.483041089e+01,8.483041089e+01,-1.494274586e+02,0.000000000e+00,2.087927524e-02,-1.856408912e+00,-4.685030414e+00,2.087927524e-02
2.900000000e-03,8.881364488e+01,2.394934750e+00,-9.120857962e+01,0.000000000e+00,0.000000000e+00,0.000000000e+00,8.881364488e+01,8.881364488e+01,5.404201422e+01,3.309177525e-09,8.991099152e+01,8.991099152e+01,5.219594258e+01,0.000000000e+00,2.065754363e-02,-1.854229806e+00,-4.434632216e+00,2.065754363e-02
2.950000000e-03,8.966410368e+01,-1.697785798e+02,8.011447540e+01,0.000000000e+00,0.000000000e+00,0.000000000e+00,8.966410391e+01,8.966410391e+01,-1.442758227e+02,-2.345851963e-07,8.669544717e+01,8.669544717e+01,-1.460789649e+02,0.000000000e+00,2.044776553e-02,-1.852108401e+00,-4.195561974e+00,2.044776553e-02
3.000000000e-03,9.048270525e+01,4.487619721e+00,-9.497032495e+01,0.000000000e+00,0.000000000e+00,0.000000000e+00,9.048270524e+01,9.048270524e+01,5.742207113e+01,6.200655397e-09,9.162683928e+01,9.162683928e+01,5.557820188e+01,0.000000000e+00,2.024941909e-02,-1.850040215e+00,-3.966928778e+00,2.024941909e-02
3.050000000e-03,9.126915874e+01,-1.676271677e+02,7.635800829e+01,0.000000000e+00,0.000000000e+00,0.000000000e+00,9.126915897e+01,9.126915897e+01,-1.408649070e+02,-2.316125602e-07,8.842494690e+01,8.842494690e+01,-1.426674812e+02,0.000000000e+00,2.006202324e-02,-1.848021146e+00,-3.747917136e+00,2.006202324e-02
3.100000000e-03,9.202318474e+01,6.696994488e+00,-9.872017920e+01,0.000000000e+00,0.000000000e+00,0.000000000e+00,9.202318473e+01,9.202318473e+01,6.086263360e+01,9.253364889e-09,9.321517337e+01,9.321517337e+01,5.902082810e+01,0.000000000e+00,1.988513430e-02,-1.846047430e+00,-3.537778719e+00,1.988513430e-02
3.150000000e-03,9.274451533e+01,-1.653606152e+02,7.261609921e+01,0.000000000e+00,0.000000000e+00,0.000000000e+00,9.274451556e+01,9.274451556e+01,-1.373959201e+02,-2.284808289e-07,9.001744168e+01,9.001744168e+01,-1.391978600e+02,0.000000000e+00,1.971834304e-02,-1.844115604e+00,-3.335825115e+00,1.971834304e-02
